1



                                 *********************************************

                                    NUMERICAL ELECTROMAGNETICS CODE (NEC-2D)

                                 *********************************************




                                     - - - - COMMENTS - - - -


                          No comments specified                                                      
                                                                                                     




                                 - - - STRUCTURE SPECIFICATION - - -

                                     COORDINATES MUST BE INPUT IN
                                     METERS OR BE SCALED TO METERS
                                     BEFORE STRUCTURE INPUT IS ENDED


  WIRE                                                                               NO. OF    FIRST  LAST     TAG
  NO.        X1         Y1         Z1          X2         Y2         Z2      RADIUS   SEG.     SEG.   SEG.     NO.
     1    0.47500    0.00000    0.00000    -0.47500    0.00000    0.00000    0.00372     19        1    19       1
     2    0.58500    0.16300    0.00000     0.01300    0.16300    0.00000    0.00640     11       20    30       2
     3    0.01300    0.16300    0.00000    -0.03900    0.16300    0.00000    0.00640      1       31    31     999
     4   -0.03900    0.16300    0.00000    -0.58500    0.16300    0.00000    0.00640     11       32    42       2
     5    0.42700    0.37300    0.00000    -0.42700    0.37300    0.00000    0.00470     17       43    59       3
      THE STRUCTURE HAS BEEN MOVED, MOVE DATA CARD IS -
        0    0   0.00000   0.00000   0.00000   0.00000   0.00000   8.00000   0.00000

   GROUND PLANE SPECIFIED.

   WHERE WIRE ENDS TOUCH GROUND, CURRENT WILL BE INTERPOLATED TO IMAGE IN GROUND PLANE.


   TOTAL SEGMENTS USED=   59     NO. SEG. IN A SYMMETRIC CELL=   59     SYMMETRY FLAG=  0


         - MULTIPLE WIRE JUNCTIONS -
 JUNCTION    SEGMENTS  (- FOR END 1, + FOR END 2)
  NONE




                                 - - - - SEGMENTATION DATA - - - -

                                        COORDINATES IN METERS

                         I+ AND I- INDICATE THE SEGMENTS BEFORE AND AFTER I


  SEG.   COORDINATES OF SEG. CENTER     SEG.     ORIENTATION ANGLES    WIRE    CONNECTION DATA   TAG
  NO.       X         Y         Z       LENGTH     ALPHA     BETA      RADIUS    I-   I    I+    NO.
     1   0.45000   0.00000   8.00000   0.05000    0.00000 180.00000   0.00372     0    1    2      1
     2   0.40000   0.00000   8.00000   0.05000    0.00000 180.00000   0.00372     1    2    3      1
     3   0.35000   0.00000   8.00000   0.05000    0.00000 180.00000   0.00372     2    3    4      1
     4   0.30000   0.00000   8.00000   0.05000    0.00000 180.00000   0.00372     3    4    5      1
     5   0.25000   0.00000   8.00000   0.05000    0.00000 180.00000   0.00372     4    5    6      1
     6   0.20000   0.00000   8.00000   0.05000    0.00000 180.00000   0.00372     5    6    7      1
     7   0.15000   0.00000   8.00000   0.05000    0.00000 180.00000   0.00372     6    7    8      1
     8   0.10000   0.00000   8.00000   0.05000    0.00000 180.00000   0.00372     7    8    9      1
     9   0.05000   0.00000   8.00000   0.05000    0.00000 180.00000   0.00372     8    9   10      1
    10   0.00000   0.00000   8.00000   0.05000    0.00000 180.00000   0.00372     9   10   11      1
    11  -0.05000   0.00000   8.00000   0.05000    0.00000 180.00000   0.00372    10   11   12      1
    12  -0.10000   0.00000   8.00000   0.05000    0.00000 180.00000   0.00372    11   12   13      1
    13  -0.15000   0.00000   8.00000   0.05000    0.00000 180.00000   0.00372    12   13   14      1
    14  -0.20000   0.00000   8.00000   0.05000    0.00000 180.00000   0.00372    13   14   15      1
    15  -0.25000   0.00000   8.00000   0.05000    0.00000 180.00000   0.00372    14   15   16      1
    16  -0.30000   0.00000   8.00000   0.05000    0.00000 180.00000   0.00372    15   16   17      1
    17  -0.35000   0.00000   8.00000   0.05000    0.00000 180.00000   0.00372    16   17   18      1
    18  -0.40000   0.00000   8.00000   0.05000    0.00000 180.00000   0.00372    17   18   19      1
    19  -0.45000   0.00000   8.00000   0.05000    0.00000 180.00000   0.00372    18   19    0      1
    20   0.55900   0.16300   8.00000   0.05200    0.00000 180.00000   0.00640     0   20   21      2
    21   0.50700   0.16300   8.00000   0.05200    0.00000 180.00000   0.00640    20   21   22      2
    22   0.45500   0.16300   8.00000   0.05200    0.00000 180.00000   0.00640    21   22   23      2
    23   0.40300   0.16300   8.00000   0.05200    0.00000 180.00000   0.00640    22   23   24      2
    24   0.35100   0.16300   8.00000   0.05200    0.00000 180.00000   0.00640    23   24   25      2
    25   0.29900   0.16300   8.00000   0.05200    0.00000 180.00000   0.00640    24   25   26      2
    26   0.24700   0.16300   8.00000   0.05200    0.00000 180.00000   0.00640    25   26   27      2
    27   0.19500   0.16300   8.00000   0.05200    0.00000 180.00000   0.00640    26   27   28      2
    28   0.14300   0.16300   8.00000   0.05200    0.00000 180.00000   0.00640    27   28   29      2
    29   0.09100   0.16300   8.00000   0.05200    0.00000 180.00000   0.00640    28   29   30      2
    30   0.03900   0.16300   8.00000   0.05200    0.00000 180.00000   0.00640    29   30   31      2
    31  -0.01300   0.16300   8.00000   0.05200    0.00000 180.00000   0.00640    30   31   32    999
    32  -0.06382   0.16300   8.00000   0.04964    0.00000 180.00000   0.00640    31   32   33      2
    33  -0.11345   0.16300   8.00000   0.04964    0.00000 180.00000   0.00640    32   33   34      2
    34  -0.16309   0.16300   8.00000   0.04964    0.00000 180.00000   0.00640    33   34   35      2
    35  -0.21273   0.16300   8.00000   0.04964    0.00000 180.00000   0.00640    34   35   36      2
    36  -0.26236   0.16300   8.00000   0.04964    0.00000 180.00000   0.00640    35   36   37      2
    37  -0.31200   0.16300   8.00000   0.04964    0.00000 180.00000   0.00640    36   37   38      2
    38  -0.36164   0.16300   8.00000   0.04964    0.00000 180.00000   0.00640    37   38   39      2
    39  -0.41127   0.16300   8.00000   0.04964    0.00000 180.00000   0.00640    38   39   40      2
    40  -0.46091   0.16300   8.00000   0.04964    0.00000 180.00000   0.00640    39   40   41      2
    41  -0.51055   0.16300   8.00000   0.04964    0.00000 180.00000   0.00640    40   41   42      2
    42  -0.56018   0.16300   8.00000   0.04964    0.00000 180.00000   0.00640    41   42    0      2
    43   0.40188   0.37300   8.00000   0.05024    0.00000 180.00000   0.00470     0   43   44      3
    44   0.35165   0.37300   8.00000   0.05024    0.00000 180.00000   0.00470    43   44   45      3
    45   0.30141   0.37300   8.00000   0.05024    0.00000 180.00000   0.00470    44   45   46      3
    46   0.25118   0.37300   8.00000   0.05024    0.00000 180.00000   0.00470    45   46   47      3
    47   0.20094   0.37300   8.00000   0.05024    0.00000 180.00000   0.00470    46   47   48      3
    48   0.15071   0.37300   8.00000   0.05024    0.00000 180.00000   0.00470    47   48   49      3
    49   0.10047   0.37300   8.00000   0.05024    0.00000 180.00000   0.00470    48   49   50      3
    50   0.05024   0.37300   8.00000   0.05024    0.00000 180.00000   0.00470    49   50   51      3
    51   0.00000   0.37300   8.00000   0.05024    0.00000 180.00000   0.00470    50   51   52      3
    52  -0.05024   0.37300   8.00000   0.05024    0.00000 180.00000   0.00470    51   52   53      3
    53  -0.10047   0.37300   8.00000   0.05024    0.00000 180.00000   0.00470    52   53   54      3
    54  -0.15071   0.37300   8.00000   0.05024    0.00000 180.00000   0.00470    53   54   55      3
    55  -0.20094   0.37300   8.00000   0.05024    0.00000 180.00000   0.00470    54   55   56      3
    56  -0.25118   0.37300   8.00000   0.05024    0.00000 180.00000   0.00470    55   56   57      3
    57  -0.30141   0.37300   8.00000   0.05024    0.00000 180.00000   0.00470    56   57   58      3
    58  -0.35165   0.37300   8.00000   0.05024    0.00000 180.00000   0.00470    57   58   59      3
    59  -0.40188   0.37300   8.00000   0.05024    0.00000 180.00000   0.00470    58   59    0      3






 ***** DATA CARD NO.  1   GN   2     0     0     0  1.10000E+01  1.00000E-02  0.00000E+00  0.00000E+00  0.00000E+00  0.00000E+00
 ***** DATA CARD NO.  2   EK   0     0     0     0  0.00000E+00  0.00000E+00  0.00000E+00  0.00000E+00  0.00000E+00  0.00000E+00
 ***** DATA CARD NO.  3   LD   5     0     0     0  5.80000E+07  0.00000E+00  0.00000E+00  0.00000E+00  0.00000E+00  0.00000E+00
 ***** DATA CARD NO.  4   EX   0   999     1     0  1.00000E+00  0.00000E+00  0.00000E+00  0.00000E+00  0.00000E+00  0.00000E+00
 ***** DATA CARD NO.  5   FR   0     1     0     0  1.44200E+02  0.00000E+00  0.00000E+00  0.00000E+00  0.00000E+00  0.00000E+00
 ***** DATA CARD NO.  6   RP   0     1     1  1000  8.70000E+01  9.00000E+01  0.00000E+00  0.00000E+00  0.00000E+00  0.00000E+00




                                 - - - - - - FREQUENCY - - - - - -

                                    FREQUENCY= 1.4420E+02 MHZ
                                    WAVELENGTH= 2.0791E+00 METERS




                    APPROXIMATE INTEGRATION EMPLOYED FOR SEGMENTS MORE THAN   1.000 WAVELENGTHS APART

                    THE EXTENDED THIN WIRE KERNEL WILL BE USED



                               - - - STRUCTURE IMPEDANCE LOADING - - -


       LOCATION          RESISTANCE   INDUCTANCE  CAPACITANCE       IMPEDANCE (OHMS)     CONDUCTIVITY    TYPE
    ITAG FROM THRU          OHMS        HENRYS       FARADS        REAL      IMAGINARY    MHOS/METER

     ALL                                                                                 5.8000E+07     WIRE  



                                  - - - ANTENNA ENVIRONMENT - - -

                                        FINITE GROUND.  SOMMERFELD SOLUTION
                                        RELATIVE DIELECTRIC CONST.= 11.000
                                        CONDUCTIVITY= 1.000E-02 MHOS/METER
                                        COMPLEX DIELECTRIC CONSTANT= 1.10000E+01-1.24660E+00



                                - - - MATRIX TIMING - - -

                        FILL=    0.016 SEC.,  FACTOR=    0.000 SEC.



                                          - - - ANTENNA INPUT PARAMETERS - - -

   TAG   SEG.    VOLTAGE (VOLTS)         CURRENT (AMPS)         IMPEDANCE (OHMS)        ADMITTANCE (MHOS)      POWER
   NO.   NO.    REAL        IMAG.       REAL        IMAG.       REAL        IMAG.       REAL        IMAG.     (WATTS)
   999    31 1.00000E+00 0.00000E+00 6.15117E-03-1.11278E-02 3.80490E+01 6.88326E+01 6.15117E-03-1.11278E-02 3.07558E-03



                             - - - CURRENTS AND LOCATION - - -

                                 DISTANCES IN WAVELENGTHS


  SEG.  TAG    COORD. OF SEG. CENTER     SEG.            - - - CURRENT (AMPS) - - -
  NO.   NO.     X        Y        Z      LENGTH     REAL        IMAG.       MAG.        PHASE
     1    1   0.2164   0.0000   3.8479  0.02405  -1.4664E-03  1.1004E-03  1.8334E-03  143.115
     2    1   0.1924   0.0000   3.8479  0.02405  -3.5254E-03  2.6550E-03  4.4133E-03  143.016
     3    1   0.1683   0.0000   3.8479  0.02405  -5.2835E-03  3.9877E-03  6.6194E-03  142.956
     4    1   0.1443   0.0000   3.8479  0.02405  -6.8507E-03  5.1754E-03  8.5858E-03  142.930
     5    1   0.1202   0.0000   3.8479  0.02405  -8.2194E-03  6.2095E-03  1.0301E-02  142.930
     6    1   0.0962   0.0000   3.8479  0.02405  -9.3727E-03  7.0756E-03  1.1744E-02  142.950
     7    1   0.0721   0.0000   3.8479  0.02405  -1.0292E-02  7.7600E-03  1.2890E-02  142.984
     8    1   0.0481   0.0000   3.8479  0.02405  -1.0961E-02  8.2524E-03  1.3720E-02  143.025
     9    1   0.0240   0.0000   3.8479  0.02405  -1.1368E-02  8.5468E-03  1.4222E-02  143.063
    10    1   0.0000   0.0000   3.8479  0.02405  -1.1504E-02  8.6419E-03  1.4388E-02  143.086
    11    1  -0.0240   0.0000   3.8479  0.02405  -1.1368E-02  8.5386E-03  1.4217E-02  143.088
    12    1  -0.0481   0.0000   3.8479  0.02405  -1.0961E-02  8.2381E-03  1.3711E-02  143.072
    13    1  -0.0721   0.0000   3.8479  0.02405  -1.0291E-02  7.7424E-03  1.2879E-02  143.045
    14    1  -0.0962   0.0000   3.8479  0.02405  -9.3718E-03  7.0571E-03  1.1732E-02  143.020
    15    1  -0.1202   0.0000   3.8479  0.02405  -8.2185E-03  6.1919E-03  1.0290E-02  143.005
    16    1  -0.1443   0.0000   3.8479  0.02405  -6.8497E-03  5.1602E-03  8.5759E-03  143.008
    17    1  -0.1683   0.0000   3.8479  0.02405  -5.2826E-03  3.9758E-03  6.6116E-03  143.034
    18    1  -0.1924   0.0000   3.8479  0.02405  -3.5247E-03  2.6471E-03  4.4080E-03  143.093
    19    1  -0.2164   0.0000   3.8479  0.02405  -1.4661E-03  1.0972E-03  1.8312E-03  143.189
    20    2   0.2689   0.0784   3.8479  0.02501   4.9542E-04 -1.4389E-03  1.5218E-03  -71.001
    21    2   0.2439   0.0784   3.8479  0.02501   1.2102E-03 -3.3328E-03  3.5457E-03  -70.043
    22    2   0.2188   0.0784   3.8479  0.02501   1.9180E-03 -4.9988E-03  5.3541E-03  -69.009
    23    2   0.1938   0.0784   3.8479  0.02501   2.6457E-03 -6.5427E-03  7.0574E-03  -67.983
    24    2   0.1688   0.0784   3.8479  0.02501   3.3686E-03 -7.9425E-03  8.6273E-03  -67.017
    25    2   0.1438   0.0784   3.8479  0.02501   4.0558E-03 -9.1652E-03  1.0023E-02  -66.130
    26    2   0.1188   0.0784   3.8479  0.02501   4.6785E-03 -1.0178E-02  1.1202E-02  -65.314
    27    2   0.0938   0.0784   3.8479  0.02501   5.2126E-03 -1.0952E-02  1.2129E-02  -64.547
    28    2   0.0688   0.0784   3.8479  0.02501   5.6391E-03 -1.1461E-02  1.2773E-02  -63.801
    29    2   0.0438   0.0784   3.8479  0.02501   5.9436E-03 -1.1681E-02  1.3106E-02  -63.032
    30    2   0.0188   0.0784   3.8479  0.02501   6.1161E-03 -1.1559E-02  1.3077E-02  -62.116
    31  999  -0.0063   0.0784   3.8479  0.02501   6.1512E-03 -1.1128E-02  1.2715E-02  -61.067
    32    2  -0.0307   0.0784   3.8479  0.02387   6.0515E-03 -1.1416E-02  1.2921E-02  -62.073
    33    2  -0.0546   0.0784   3.8479  0.02387   5.8293E-03 -1.1416E-02  1.2818E-02  -62.951
    34    2  -0.0784   0.0784   3.8479  0.02387   5.4901E-03 -1.1107E-02  1.2390E-02  -63.698
    35    2  -0.1023   0.0784   3.8479  0.02387   5.0443E-03 -1.0541E-02  1.1686E-02  -64.428
    36    2  -0.1262   0.0784   3.8479  0.02387   4.5056E-03 -9.7423E-03  1.0734E-02  -65.181
    37    2  -0.1501   0.0784   3.8479  0.02387   3.8921E-03 -8.7348E-03  9.5627E-03  -65.983
    38    2  -0.1739   0.0784   3.8479  0.02387   3.2258E-03 -7.5454E-03  8.2061E-03  -66.853
    39    2  -0.1978   0.0784   3.8479  0.02387   2.5325E-03 -6.2034E-03  6.7005E-03  -67.793
    40    2  -0.2217   0.0784   3.8479  0.02387   1.8390E-03 -4.7367E-03  5.0812E-03  -68.782
    41    2  -0.2456   0.0784   3.8479  0.02387   1.1650E-03 -3.1617E-03  3.3695E-03  -69.772
    42    2  -0.2694   0.0784   3.8479  0.02387   4.8105E-04 -1.3728E-03  1.4547E-03  -70.689
    43    3   0.1933   0.1794   3.8479  0.02416  -3.5595E-04  3.7060E-05  3.5787E-04  174.056
    44    3   0.1691   0.1794   3.8479  0.02416  -8.2462E-04  8.9697E-05  8.2948E-04  173.792
    45    3   0.1450   0.1794   3.8479  0.02416  -1.2084E-03  1.3361E-04  1.2158E-03  173.690
    46    3   0.1208   0.1794   3.8479  0.02416  -1.5369E-03  1.6909E-04  1.5462E-03  173.722
    47    3   0.0967   0.1794   3.8479  0.02416  -1.8104E-03  1.9515E-04  1.8208E-03  173.848
    48    3   0.0725   0.1794   3.8479  0.02416  -2.0266E-03  2.1189E-04  2.0376E-03  174.031
    49    3   0.0483   0.1794   3.8479  0.02416  -2.1831E-03  2.2049E-04  2.1942E-03  174.233
    50    3   0.0242   0.1794   3.8479  0.02416  -2.2778E-03  2.2303E-04  2.2887E-03  174.408
    51    3   0.0000   0.1794   3.8479  0.02416  -2.3095E-03  2.2177E-04  2.3201E-03  174.515
    52    3  -0.0242   0.1794   3.8479  0.02416  -2.2776E-03  2.1811E-04  2.2881E-03  174.530
    53    3  -0.0483   0.1794   3.8479  0.02416  -2.1827E-03  2.1172E-04  2.1929E-03  174.460
    54    3  -0.0725   0.1794   3.8479  0.02416  -2.0260E-03  2.0087E-04  2.0359E-03  174.338
    55    3  -0.0967   0.1794   3.8479  0.02416  -1.8097E-03  1.8353E-04  1.8190E-03  174.209
    56    3  -0.1208   0.1794   3.8479  0.02416  -1.5362E-03  1.5826E-04  1.5443E-03  174.118
    57    3  -0.1450   0.1794   3.8479  0.02416  -1.2077E-03  1.2466E-04  1.2141E-03  174.106
    58    3  -0.1691   0.1794   3.8479  0.02416  -8.2404E-04  8.3474E-05  8.2826E-04  174.216
    59    3  -0.1933   0.1794   3.8479  0.02416  -3.5566E-04  3.4386E-05  3.5732E-04  174.478



                                        - - - POWER BUDGET - - -

                                           INPUT POWER   = 3.0756E-03 WATTS
                                           RADIATED POWER= 3.0641E-03 WATTS
                                           STRUCTURE LOSS= 1.1479E-05 WATTS
                                           NETWORK LOSS  = 0.0000E+00 WATTS
                                           EFFICIENCY    =  99.63 PERCENT



                                                - - - RADIATION PATTERNS - - -

  - - ANGLES - -           - POWER GAINS -       - - - POLARIZATION - - -    - - - E(THETA) - - -    - - - E(PHI) - - -
  THETA     PHI        VERT.   HOR.    TOTAL      AXIAL     TILT   SENSE     MAGNITUDE    PHASE      MAGNITUDE    PHASE 
 DEGREES  DEGREES       DB      DB      DB        RATIO     DEG.              VOLTS/M    DEGREES      VOLTS/M    DEGREES
   87.00    90.00    -999.99   -2.24   -2.24    0.00000    90.00  LINEAR    2.83440E-14  -138.34    3.31679E-01   -78.45






 ***** DATA CARD NO.  7   EN   0     1     1  1000  8.70000E+01  9.00000E+01  0.00000E+00  0.00000E+00  0.00000E+00  0.00000E+00

 RUN TIME =     0.125
