1



                                 *********************************************

                                    NUMERICAL ELECTROMAGNETICS CODE (NEC-2D)

                                 *********************************************




                                     - - - - COMMENTS - - - -


                          No comments specified                                                      
                                                                                                     




                                 - - - STRUCTURE SPECIFICATION - - -

                                     COORDINATES MUST BE INPUT IN
                                     METERS OR BE SCALED TO METERS
                                     BEFORE STRUCTURE INPUT IS ENDED


  WIRE                                                                               NO. OF    FIRST  LAST     TAG
  NO.        X1         Y1         Z1          X2         Y2         Z2      RADIUS   SEG.     SEG.   SEG.     NO.
     1   -0.48700    0.00000    0.00000     0.48700    0.00000    0.00000    0.00248     19        1    19       1
     2   -0.59100    0.60400    0.00000    -0.01900    0.60400    0.00000    0.00723     11       20    30       2
     3   -0.01900    0.60400    0.00000     0.03300    0.60400    0.00000    0.00723      1       31    31     999
     4    0.03300    0.60400    0.00000     0.59100    0.60400    0.00000    0.00723     11       32    42       2
     5   -0.47900    0.72300    0.00000     0.47900    0.72300    0.00000    0.00248     19       43    61       3
     6   -0.47900    0.98800    0.00000     0.47900    0.98800    0.00000    0.00248     19       62    80       4
     7   -0.47900    1.23000    0.00000     0.47900    1.23000    0.00000    0.00248     19       81    99       5
      THE STRUCTURE HAS BEEN MOVED, MOVE DATA CARD IS -
        0    0   0.00000   0.00000   0.00000   0.00000   0.00000   8.00000   0.00000

   GROUND PLANE SPECIFIED.

   WHERE WIRE ENDS TOUCH GROUND, CURRENT WILL BE INTERPOLATED TO IMAGE IN GROUND PLANE.


   TOTAL SEGMENTS USED=   99     NO. SEG. IN A SYMMETRIC CELL=   99     SYMMETRY FLAG=  0


         - MULTIPLE WIRE JUNCTIONS -
 JUNCTION    SEGMENTS  (- FOR END 1, + FOR END 2)
  NONE




                                 - - - - SEGMENTATION DATA - - - -

                                        COORDINATES IN METERS

                         I+ AND I- INDICATE THE SEGMENTS BEFORE AND AFTER I


  SEG.   COORDINATES OF SEG. CENTER     SEG.     ORIENTATION ANGLES    WIRE    CONNECTION DATA   TAG
  NO.       X         Y         Z       LENGTH     ALPHA     BETA      RADIUS    I-   I    I+    NO.
     1  -0.46137   0.00000   8.00000   0.05126    0.00000   0.00000   0.00248     0    1    2      1
     2  -0.41011   0.00000   8.00000   0.05126    0.00000   0.00000   0.00248     1    2    3      1
     3  -0.35884   0.00000   8.00000   0.05126    0.00000   0.00000   0.00248     2    3    4      1
     4  -0.30758   0.00000   8.00000   0.05126    0.00000   0.00000   0.00248     3    4    5      1
     5  -0.25632   0.00000   8.00000   0.05126    0.00000   0.00000   0.00248     4    5    6      1
     6  -0.20505   0.00000   8.00000   0.05126    0.00000   0.00000   0.00248     5    6    7      1
     7  -0.15379   0.00000   8.00000   0.05126    0.00000   0.00000   0.00248     6    7    8      1
     8  -0.10253   0.00000   8.00000   0.05126    0.00000   0.00000   0.00248     7    8    9      1
     9  -0.05126   0.00000   8.00000   0.05126    0.00000   0.00000   0.00248     8    9   10      1
    10   0.00000   0.00000   8.00000   0.05126    0.00000   0.00000   0.00248     9   10   11      1
    11   0.05126   0.00000   8.00000   0.05126    0.00000   0.00000   0.00248    10   11   12      1
    12   0.10253   0.00000   8.00000   0.05126    0.00000   0.00000   0.00248    11   12   13      1
    13   0.15379   0.00000   8.00000   0.05126    0.00000   0.00000   0.00248    12   13   14      1
    14   0.20505   0.00000   8.00000   0.05126    0.00000   0.00000   0.00248    13   14   15      1
    15   0.25632   0.00000   8.00000   0.05126    0.00000   0.00000   0.00248    14   15   16      1
    16   0.30758   0.00000   8.00000   0.05126    0.00000   0.00000   0.00248    15   16   17      1
    17   0.35884   0.00000   8.00000   0.05126    0.00000   0.00000   0.00248    16   17   18      1
    18   0.41011   0.00000   8.00000   0.05126    0.00000   0.00000   0.00248    17   18   19      1
    19   0.46137   0.00000   8.00000   0.05126    0.00000   0.00000   0.00248    18   19    0      1
    20  -0.56500   0.60400   8.00000   0.05200    0.00000   0.00000   0.00723     0   20   21      2
    21  -0.51300   0.60400   8.00000   0.05200    0.00000   0.00000   0.00723    20   21   22      2
    22  -0.46100   0.60400   8.00000   0.05200    0.00000   0.00000   0.00723    21   22   23      2
    23  -0.40900   0.60400   8.00000   0.05200    0.00000   0.00000   0.00723    22   23   24      2
    24  -0.35700   0.60400   8.00000   0.05200    0.00000   0.00000   0.00723    23   24   25      2
    25  -0.30500   0.60400   8.00000   0.05200    0.00000   0.00000   0.00723    24   25   26      2
    26  -0.25300   0.60400   8.00000   0.05200    0.00000   0.00000   0.00723    25   26   27      2
    27  -0.20100   0.60400   8.00000   0.05200    0.00000   0.00000   0.00723    26   27   28      2
    28  -0.14900   0.60400   8.00000   0.05200    0.00000   0.00000   0.00723    27   28   29      2
    29  -0.09700   0.60400   8.00000   0.05200    0.00000   0.00000   0.00723    28   29   30      2
    30  -0.04500   0.60400   8.00000   0.05200    0.00000   0.00000   0.00723    29   30   31      2
    31   0.00700   0.60400   8.00000   0.05200    0.00000   0.00000   0.00723    30   31   32    999
    32   0.05836   0.60400   8.00000   0.05073    0.00000   0.00000   0.00723    31   32   33      2
    33   0.10909   0.60400   8.00000   0.05073    0.00000   0.00000   0.00723    32   33   34      2
    34   0.15982   0.60400   8.00000   0.05073    0.00000   0.00000   0.00723    33   34   35      2
    35   0.21055   0.60400   8.00000   0.05073    0.00000   0.00000   0.00723    34   35   36      2
    36   0.26127   0.60400   8.00000   0.05073    0.00000   0.00000   0.00723    35   36   37      2
    37   0.31200   0.60400   8.00000   0.05073    0.00000   0.00000   0.00723    36   37   38      2
    38   0.36273   0.60400   8.00000   0.05073    0.00000   0.00000   0.00723    37   38   39      2
    39   0.41345   0.60400   8.00000   0.05073    0.00000   0.00000   0.00723    38   39   40      2
    40   0.46418   0.60400   8.00000   0.05073    0.00000   0.00000   0.00723    39   40   41      2
    41   0.51491   0.60400   8.00000   0.05073    0.00000   0.00000   0.00723    40   41   42      2
    42   0.56564   0.60400   8.00000   0.05073    0.00000   0.00000   0.00723    41   42    0      2
    43  -0.45379   0.72300   8.00000   0.05042    0.00000   0.00000   0.00248     0   43   44      3
    44  -0.40337   0.72300   8.00000   0.05042    0.00000   0.00000   0.00248    43   44   45      3
    45  -0.35295   0.72300   8.00000   0.05042    0.00000   0.00000   0.00248    44   45   46      3
    46  -0.30253   0.72300   8.00000   0.05042    0.00000   0.00000   0.00248    45   46   47      3
    47  -0.25211   0.72300   8.00000   0.05042    0.00000   0.00000   0.00248    46   47   48      3
    48  -0.20168   0.72300   8.00000   0.05042    0.00000   0.00000   0.00248    47   48   49      3
    49  -0.15126   0.72300   8.00000   0.05042    0.00000   0.00000   0.00248    48   49   50      3
    50  -0.10084   0.72300   8.00000   0.05042    0.00000   0.00000   0.00248    49   50   51      3
    51  -0.05042   0.72300   8.00000   0.05042    0.00000   0.00000   0.00248    50   51   52      3
    52   0.00000   0.72300   8.00000   0.05042    0.00000   0.00000   0.00248    51   52   53      3
    53   0.05042   0.72300   8.00000   0.05042    0.00000   0.00000   0.00248    52   53   54      3
    54   0.10084   0.72300   8.00000   0.05042    0.00000   0.00000   0.00248    53   54   55      3
    55   0.15126   0.72300   8.00000   0.05042    0.00000   0.00000   0.00248    54   55   56      3
    56   0.20168   0.72300   8.00000   0.05042    0.00000   0.00000   0.00248    55   56   57      3
    57   0.25211   0.72300   8.00000   0.05042    0.00000   0.00000   0.00248    56   57   58      3
    58   0.30253   0.72300   8.00000   0.05042    0.00000   0.00000   0.00248    57   58   59      3
    59   0.35295   0.72300   8.00000   0.05042    0.00000   0.00000   0.00248    58   59   60      3
    60   0.40337   0.72300   8.00000   0.05042    0.00000   0.00000   0.00248    59   60   61      3
    61   0.45379   0.72300   8.00000   0.05042    0.00000   0.00000   0.00248    60   61    0      3
    62  -0.45379   0.98800   8.00000   0.05042    0.00000   0.00000   0.00248     0   62   63      4
    63  -0.40337   0.98800   8.00000   0.05042    0.00000   0.00000   0.00248    62   63   64      4
    64  -0.35295   0.98800   8.00000   0.05042    0.00000   0.00000   0.00248    63   64   65      4
    65  -0.30253   0.98800   8.00000   0.05042    0.00000   0.00000   0.00248    64   65   66      4
    66  -0.25211   0.98800   8.00000   0.05042    0.00000   0.00000   0.00248    65   66   67      4
    67  -0.20168   0.98800   8.00000   0.05042    0.00000   0.00000   0.00248    66   67   68      4
    68  -0.15126   0.98800   8.00000   0.05042    0.00000   0.00000   0.00248    67   68   69      4
    69  -0.10084   0.98800   8.00000   0.05042    0.00000   0.00000   0.00248    68   69   70      4
    70  -0.05042   0.98800   8.00000   0.05042    0.00000   0.00000   0.00248    69   70   71      4
    71   0.00000   0.98800   8.00000   0.05042    0.00000   0.00000   0.00248    70   71   72      4
    72   0.05042   0.98800   8.00000   0.05042    0.00000   0.00000   0.00248    71   72   73      4
    73   0.10084   0.98800   8.00000   0.05042    0.00000   0.00000   0.00248    72   73   74      4
    74   0.15126   0.98800   8.00000   0.05042    0.00000   0.00000   0.00248    73   74   75      4
    75   0.20168   0.98800   8.00000   0.05042    0.00000   0.00000   0.00248    74   75   76      4
    76   0.25211   0.98800   8.00000   0.05042    0.00000   0.00000   0.00248    75   76   77      4
    77   0.30253   0.98800   8.00000   0.05042    0.00000   0.00000   0.00248    76   77   78      4
    78   0.35295   0.98800   8.00000   0.05042    0.00000   0.00000   0.00248    77   78   79      4
    79   0.40337   0.98800   8.00000   0.05042    0.00000   0.00000   0.00248    78   79   80      4
    80   0.45379   0.98800   8.00000   0.05042    0.00000   0.00000   0.00248    79   80    0      4
    81  -0.45379   1.23000   8.00000   0.05042    0.00000   0.00000   0.00248     0   81   82      5
    82  -0.40337   1.23000   8.00000   0.05042    0.00000   0.00000   0.00248    81   82   83      5
    83  -0.35295   1.23000   8.00000   0.05042    0.00000   0.00000   0.00248    82   83   84      5
    84  -0.30253   1.23000   8.00000   0.05042    0.00000   0.00000   0.00248    83   84   85      5
    85  -0.25211   1.23000   8.00000   0.05042    0.00000   0.00000   0.00248    84   85   86      5
    86  -0.20168   1.23000   8.00000   0.05042    0.00000   0.00000   0.00248    85   86   87      5
    87  -0.15126   1.23000   8.00000   0.05042    0.00000   0.00000   0.00248    86   87   88      5
    88  -0.10084   1.23000   8.00000   0.05042    0.00000   0.00000   0.00248    87   88   89      5
    89  -0.05042   1.23000   8.00000   0.05042    0.00000   0.00000   0.00248    88   89   90      5
    90   0.00000   1.23000   8.00000   0.05042    0.00000   0.00000   0.00248    89   90   91      5
    91   0.05042   1.23000   8.00000   0.05042    0.00000   0.00000   0.00248    90   91   92      5
    92   0.10084   1.23000   8.00000   0.05042    0.00000   0.00000   0.00248    91   92   93      5
    93   0.15126   1.23000   8.00000   0.05042    0.00000   0.00000   0.00248    92   93   94      5
    94   0.20168   1.23000   8.00000   0.05042    0.00000   0.00000   0.00248    93   94   95      5
    95   0.25211   1.23000   8.00000   0.05042    0.00000   0.00000   0.00248    94   95   96      5
    96   0.30253   1.23000   8.00000   0.05042    0.00000   0.00000   0.00248    95   96   97      5
    97   0.35295   1.23000   8.00000   0.05042    0.00000   0.00000   0.00248    96   97   98      5
    98   0.40337   1.23000   8.00000   0.05042    0.00000   0.00000   0.00248    97   98   99      5
    99   0.45379   1.23000   8.00000   0.05042    0.00000   0.00000   0.00248    98   99    0      5






 ***** DATA CARD NO.  1   GN   2     0     0     0  1.10000E+01  1.00000E-02  0.00000E+00  0.00000E+00  0.00000E+00  0.00000E+00
 ***** DATA CARD NO.  2   EK   0     0     0     0  0.00000E+00  0.00000E+00  0.00000E+00  0.00000E+00  0.00000E+00  0.00000E+00
 ***** DATA CARD NO.  3   LD   5     0     0     0  5.80000E+07  0.00000E+00  0.00000E+00  0.00000E+00  0.00000E+00  0.00000E+00
 ***** DATA CARD NO.  4   EX   0   999     1     0  1.00000E+00  0.00000E+00  0.00000E+00  0.00000E+00  0.00000E+00  0.00000E+00
 ***** DATA CARD NO.  5   FR   0     1     0     0  1.44200E+02  0.00000E+00  0.00000E+00  0.00000E+00  0.00000E+00  0.00000E+00
 ***** DATA CARD NO.  6   RP   0     1     1  1000  8.70000E+01  9.00000E+01  0.00000E+00  0.00000E+00  0.00000E+00  0.00000E+00




                                 - - - - - - FREQUENCY - - - - - -

                                    FREQUENCY= 1.4420E+02 MHZ
                                    WAVELENGTH= 2.0791E+00 METERS




                    APPROXIMATE INTEGRATION EMPLOYED FOR SEGMENTS MORE THAN   1.000 WAVELENGTHS APART

                    THE EXTENDED THIN WIRE KERNEL WILL BE USED



                               - - - STRUCTURE IMPEDANCE LOADING - - -


       LOCATION          RESISTANCE   INDUCTANCE  CAPACITANCE       IMPEDANCE (OHMS)     CONDUCTIVITY    TYPE
    ITAG FROM THRU          OHMS        HENRYS       FARADS        REAL      IMAGINARY    MHOS/METER

     ALL                                                                                 5.8000E+07     WIRE  



                                  - - - ANTENNA ENVIRONMENT - - -

                                        FINITE GROUND.  SOMMERFELD SOLUTION
                                        RELATIVE DIELECTRIC CONST.= 11.000
                                        CONDUCTIVITY= 1.000E-02 MHOS/METER
                                        COMPLEX DIELECTRIC CONSTANT= 1.10000E+01-1.24660E+00



                                - - - MATRIX TIMING - - -

                        FILL=    0.047 SEC.,  FACTOR=    0.000 SEC.



                                          - - - ANTENNA INPUT PARAMETERS - - -

   TAG   SEG.    VOLTAGE (VOLTS)         CURRENT (AMPS)         IMPEDANCE (OHMS)        ADMITTANCE (MHOS)      POWER
   NO.   NO.    REAL        IMAG.       REAL        IMAG.       REAL        IMAG.       REAL        IMAG.     (WATTS)
   999    31 1.00000E+00 0.00000E+00 1.79596E-02-7.50634E-05 5.56796E+01 2.32717E-01 1.79596E-02-7.50634E-05 8.97979E-03



                             - - - CURRENTS AND LOCATION - - -

                                 DISTANCES IN WAVELENGTHS


  SEG.  TAG    COORD. OF SEG. CENTER     SEG.            - - - CURRENT (AMPS) - - -
  NO.   NO.     X        Y        Z      LENGTH     REAL        IMAG.       MAG.        PHASE
     1    1  -0.2219   0.0000   3.8479  0.02466   7.8756E-04  3.7936E-04  8.7416E-04   25.720
     2    1  -0.1973   0.0000   3.8479  0.02466   1.9582E-03  9.4388E-04  2.1738E-03   25.734
     3    1  -0.1726   0.0000   3.8479  0.02466   2.9660E-03  1.4304E-03  3.2929E-03   25.747
     4    1  -0.1479   0.0000   3.8479  0.02466   3.8651E-03  1.8650E-03  4.2915E-03   25.758
     5    1  -0.1233   0.0000   3.8479  0.02466   4.6510E-03  2.2451E-03  5.1645E-03   25.767
     6    1  -0.0986   0.0000   3.8479  0.02466   5.3135E-03  2.5657E-03  5.9005E-03   25.774
     7    1  -0.0740   0.0000   3.8479  0.02466   5.8418E-03  2.8214E-03  6.4874E-03   25.779
     8    1  -0.0493   0.0000   3.8479  0.02466   6.2265E-03  3.0076E-03  6.9149E-03   25.782
     9    1  -0.0247   0.0000   3.8479  0.02466   6.4604E-03  3.1207E-03  7.1747E-03   25.783
    10    1   0.0000   0.0000   3.8479  0.02466   6.5389E-03  3.1586E-03  7.2618E-03   25.783
    11    1   0.0247   0.0000   3.8479  0.02466   6.4605E-03  3.1205E-03  7.1746E-03   25.781
    12    1   0.0493   0.0000   3.8479  0.02466   6.2267E-03  3.0071E-03  6.9148E-03   25.778
    13    1   0.0740   0.0000   3.8479  0.02466   5.8421E-03  2.8207E-03  6.4874E-03   25.773
    14    1   0.0986   0.0000   3.8479  0.02466   5.3138E-03  2.5649E-03  5.9004E-03   25.766
    15    1   0.1233   0.0000   3.8479  0.02466   4.6513E-03  2.2443E-03  5.1645E-03   25.757
    16    1   0.1479   0.0000   3.8479  0.02466   3.8655E-03  1.8642E-03  4.2915E-03   25.747
    17    1   0.1726   0.0000   3.8479  0.02466   2.9663E-03  1.4298E-03  3.2929E-03   25.734
    18    1   0.1973   0.0000   3.8479  0.02466   1.9585E-03  9.4339E-04  2.1739E-03   25.720
    19    1   0.2219   0.0000   3.8479  0.02466   7.8768E-04  3.7914E-04  8.7417E-04   25.703
    20    2  -0.2718   0.2905   3.8479  0.02501   1.3697E-03 -6.0508E-04  1.4974E-03  -23.833
    21    2  -0.2467   0.2905   3.8479  0.02501   3.3328E-03 -1.2622E-03  3.5638E-03  -20.742
    22    2  -0.2217   0.2905   3.8479  0.02501   5.3444E-03 -1.6728E-03  5.6001E-03  -17.380
    23    2  -0.1967   0.2905   3.8479  0.02501   7.4747E-03 -1.8989E-03  7.7122E-03  -14.254
    24    2  -0.1717   0.2905   3.8479  0.02501   9.6151E-03 -1.9806E-03  9.8170E-03  -11.640
    25    2  -0.1467   0.2905   3.8479  0.02501   1.1652E-02 -1.9527E-03  1.1814E-02   -9.514
    26    2  -0.1217   0.2905   3.8479  0.02501   1.3496E-02 -1.8362E-03  1.3620E-02   -7.748
    27    2  -0.0967   0.2905   3.8479  0.02501   1.5080E-02 -1.6433E-03  1.5169E-02   -6.219
    28    2  -0.0717   0.2905   3.8479  0.02501   1.6352E-02 -1.3799E-03  1.6410E-02   -4.824
    29    2  -0.0467   0.2905   3.8479  0.02501   1.7272E-02 -1.0452E-03  1.7304E-02   -3.463
    30    2  -0.0216   0.2905   3.8479  0.02501   1.7813E-02 -5.9888E-04  1.7823E-02   -1.926
    31  999   0.0034   0.2905   3.8479  0.02501   1.7960E-02 -7.5063E-05  1.7960E-02   -0.239
    32    2   0.0281   0.2905   3.8479  0.02440   1.7712E-02 -5.8353E-04  1.7722E-02   -1.887
    33    2   0.0525   0.2905   3.8479  0.02440   1.7092E-02 -1.0117E-03  1.7122E-02   -3.388
    34    2   0.0769   0.2905   3.8479  0.02440   1.6117E-02 -1.3318E-03  1.6171E-02   -4.724
    35    2   0.1013   0.2905   3.8479  0.02440   1.4813E-02 -1.5834E-03  1.4897E-02   -6.101
    36    2   0.1257   0.2905   3.8479  0.02440   1.3220E-02 -1.7678E-03  1.3338E-02   -7.616
    37    2   0.1501   0.2905   3.8479  0.02440   1.1389E-02 -1.8792E-03  1.1543E-02   -9.369
    38    2   0.1745   0.2905   3.8479  0.02440   9.3850E-03 -1.9057E-03  9.5765E-03  -11.478
    39    2   0.1989   0.2905   3.8479  0.02440   7.2924E-03 -1.8262E-03  7.5175E-03  -14.059
    40    2   0.2233   0.2905   3.8479  0.02440   5.2191E-03 -1.6074E-03  5.4610E-03  -17.118
    41    2   0.2477   0.2905   3.8479  0.02440   3.2633E-03 -1.2121E-03  3.4812E-03  -20.377
    42    2   0.2721   0.2905   3.8479  0.02440   1.3480E-03 -5.8246E-04  1.4685E-03  -23.369
    43    3  -0.2183   0.3478   3.8479  0.02425  -3.3986E-03 -1.5480E-03  3.7346E-03 -155.511
    44    3  -0.1940   0.3478   3.8479  0.02425  -8.4651E-03 -3.8640E-03  9.3053E-03 -155.465
    45    3  -0.1698   0.3478   3.8479  0.02425  -1.2847E-02 -5.8820E-03  1.4130E-02 -155.399
    46    3  -0.1455   0.3478   3.8479  0.02425  -1.6770E-02 -7.7050E-03  1.8456E-02 -155.324
    47    3  -0.1213   0.3478   3.8479  0.02425  -2.0208E-02 -9.3183E-03  2.2253E-02 -155.245
