1



                                 *********************************************

                                    NUMERICAL ELECTROMAGNETICS CODE (NEC-2D)

                                 *********************************************




                                     - - - - COMMENTS - - - -


                          No comments specified                                                      
                                                                                                     




                                 - - - STRUCTURE SPECIFICATION - - -

                                     COORDINATES MUST BE INPUT IN
                                     METERS OR BE SCALED TO METERS
                                     BEFORE STRUCTURE INPUT IS ENDED


  WIRE                                                                               NO. OF    FIRST  LAST     TAG
  NO.        X1         Y1         Z1          X2         Y2         Z2      RADIUS   SEG.     SEG.   SEG.     NO.
     1   -0.49400    0.00000    0.00000     0.49400    0.00000    0.00000    0.00229     20        1    20       1
     2   -0.46600    0.56300    0.00000    -0.05000    0.56300    0.00000    0.00868      8       21    28       2
     3   -0.05000    0.56300    0.00000     0.00200    0.56300    0.00000    0.00868      1       29    29     999
     4    0.00200    0.56300    0.00000     0.46600    0.56300    0.00000    0.00868      8       30    37       2
     5   -0.46100    0.69400    0.00000     0.46100    0.69400    0.00000    0.00218     18       38    55       3
     6   -0.46100    0.90800    0.00000     0.46100    0.90800    0.00000    0.00279     18       56    73       4
     7   -0.46100    1.15300    0.00000     0.46100    1.15300    0.00000    0.00265     18       74    91       5
      THE STRUCTURE HAS BEEN MOVED, MOVE DATA CARD IS -
        0    0   0.00000   0.00000   0.00000   0.00000   0.00000   8.00000   0.00000

   GROUND PLANE SPECIFIED.

   WHERE WIRE ENDS TOUCH GROUND, CURRENT WILL BE INTERPOLATED TO IMAGE IN GROUND PLANE.


   TOTAL SEGMENTS USED=   91     NO. SEG. IN A SYMMETRIC CELL=   91     SYMMETRY FLAG=  0


         - MULTIPLE WIRE JUNCTIONS -
 JUNCTION    SEGMENTS  (- FOR END 1, + FOR END 2)
  NONE




                                 - - - - SEGMENTATION DATA - - - -

                                        COORDINATES IN METERS

                         I+ AND I- INDICATE THE SEGMENTS BEFORE AND AFTER I


  SEG.   COORDINATES OF SEG. CENTER     SEG.     ORIENTATION ANGLES    WIRE    CONNECTION DATA   TAG
  NO.       X         Y         Z       LENGTH     ALPHA     BETA      RADIUS    I-   I    I+    NO.
     1  -0.46930   0.00000   8.00000   0.04940    0.00000   0.00000   0.00229     0    1    2      1
     2  -0.41990   0.00000   8.00000   0.04940    0.00000   0.00000   0.00229     1    2    3      1
     3  -0.37050   0.00000   8.00000   0.04940    0.00000   0.00000   0.00229     2    3    4      1
     4  -0.32110   0.00000   8.00000   0.04940    0.00000   0.00000   0.00229     3    4    5      1
     5  -0.27170   0.00000   8.00000   0.04940    0.00000   0.00000   0.00229     4    5    6      1
     6  -0.22230   0.00000   8.00000   0.04940    0.00000   0.00000   0.00229     5    6    7      1
     7  -0.17290   0.00000   8.00000   0.04940    0.00000   0.00000   0.00229     6    7    8      1
     8  -0.12350   0.00000   8.00000   0.04940    0.00000   0.00000   0.00229     7    8    9      1
     9  -0.07410   0.00000   8.00000   0.04940    0.00000   0.00000   0.00229     8    9   10      1
    10  -0.02470   0.00000   8.00000   0.04940    0.00000   0.00000   0.00229     9   10   11      1
    11   0.02470   0.00000   8.00000   0.04940    0.00000   0.00000   0.00229    10   11   12      1
    12   0.07410   0.00000   8.00000   0.04940    0.00000   0.00000   0.00229    11   12   13      1
    13   0.12350   0.00000   8.00000   0.04940    0.00000   0.00000   0.00229    12   13   14      1
    14   0.17290   0.00000   8.00000   0.04940    0.00000   0.00000   0.00229    13   14   15      1
    15   0.22230   0.00000   8.00000   0.04940    0.00000   0.00000   0.00229    14   15   16      1
    16   0.27170   0.00000   8.00000   0.04940    0.00000   0.00000   0.00229    15   16   17      1
    17   0.32110   0.00000   8.00000   0.04940    0.00000   0.00000   0.00229    16   17   18      1
    18   0.37050   0.00000   8.00000   0.04940    0.00000   0.00000   0.00229    17   18   19      1
    19   0.41990   0.00000   8.00000   0.04940    0.00000   0.00000   0.00229    18   19   20      1
    20   0.46930   0.00000   8.00000   0.04940    0.00000   0.00000   0.00229    19   20    0      1
    21  -0.44000   0.56300   8.00000   0.05200    0.00000   0.00000   0.00868     0   21   22      2
    22  -0.38800   0.56300   8.00000   0.05200    0.00000   0.00000   0.00868    21   22   23      2
    23  -0.33600   0.56300   8.00000   0.05200    0.00000   0.00000   0.00868    22   23   24      2
    24  -0.28400   0.56300   8.00000   0.05200    0.00000   0.00000   0.00868    23   24   25      2
    25  -0.23200   0.56300   8.00000   0.05200    0.00000   0.00000   0.00868    24   25   26      2
    26  -0.18000   0.56300   8.00000   0.05200    0.00000   0.00000   0.00868    25   26   27      2
    27  -0.12800   0.56300   8.00000   0.05200    0.00000   0.00000   0.00868    26   27   28      2
    28  -0.07600   0.56300   8.00000   0.05200    0.00000   0.00000   0.00868    27   28   29      2
    29  -0.02400   0.56300   8.00000   0.05200    0.00000   0.00000   0.00868    28   29   30    999
    30   0.03100   0.56300   8.00000   0.05800    0.00000   0.00000   0.00868    29   30   31      2
    31   0.08900   0.56300   8.00000   0.05800    0.00000   0.00000   0.00868    30   31   32      2
    32   0.14700   0.56300   8.00000   0.05800    0.00000   0.00000   0.00868    31   32   33      2
    33   0.20500   0.56300   8.00000   0.05800    0.00000   0.00000   0.00868    32   33   34      2
    34   0.26300   0.56300   8.00000   0.05800    0.00000   0.00000   0.00868    33   34   35      2
    35   0.32100   0.56300   8.00000   0.05800    0.00000   0.00000   0.00868    34   35   36      2
    36   0.37900   0.56300   8.00000   0.05800    0.00000   0.00000   0.00868    35   36   37      2
    37   0.43700   0.56300   8.00000   0.05800    0.00000   0.00000   0.00868    36   37    0      2
    38  -0.43539   0.69400   8.00000   0.05122    0.00000   0.00000   0.00218     0   38   39      3
    39  -0.38417   0.69400   8.00000   0.05122    0.00000   0.00000   0.00218    38   39   40      3
    40  -0.33294   0.69400   8.00000   0.05122    0.00000   0.00000   0.00218    39   40   41      3
    41  -0.28172   0.69400   8.00000   0.05122    0.00000   0.00000   0.00218    40   41   42      3
    42  -0.23050   0.69400   8.00000   0.05122    0.00000   0.00000   0.00218    41   42   43      3
    43  -0.17928   0.69400   8.00000   0.05122    0.00000   0.00000   0.00218    42   43   44      3
    44  -0.12806   0.69400   8.00000   0.05122    0.00000   0.00000   0.00218    43   44   45      3
    45  -0.07683   0.69400   8.00000   0.05122    0.00000   0.00000   0.00218    44   45   46      3
    46  -0.02561   0.69400   8.00000   0.05122    0.00000   0.00000   0.00218    45   46   47      3
    47   0.02561   0.69400   8.00000   0.05122    0.00000   0.00000   0.00218    46   47   48      3
    48   0.07683   0.69400   8.00000   0.05122    0.00000   0.00000   0.00218    47   48   49      3
    49   0.12806   0.69400   8.00000   0.05122    0.00000   0.00000   0.00218    48   49   50      3
    50   0.17928   0.69400   8.00000   0.05122    0.00000   0.00000   0.00218    49   50   51      3
    51   0.23050   0.69400   8.00000   0.05122    0.00000   0.00000   0.00218    50   51   52      3
    52   0.28172   0.69400   8.00000   0.05122    0.00000   0.00000   0.00218    51   52   53      3
    53   0.33294   0.69400   8.00000   0.05122    0.00000   0.00000   0.00218    52   53   54      3
    54   0.38417   0.69400   8.00000   0.05122    0.00000   0.00000   0.00218    53   54   55      3
    55   0.43539   0.69400   8.00000   0.05122    0.00000   0.00000   0.00218    54   55    0      3
    56  -0.43539   0.90800   8.00000   0.05122    0.00000   0.00000   0.00279     0   56   57      4
    57  -0.38417   0.90800   8.00000   0.05122    0.00000   0.00000   0.00279    56   57   58      4
    58  -0.33294   0.90800   8.00000   0.05122    0.00000   0.00000   0.00279    57   58   59      4
    59  -0.28172   0.90800   8.00000   0.05122    0.00000   0.00000   0.00279    58   59   60      4
    60  -0.23050   0.90800   8.00000   0.05122    0.00000   0.00000   0.00279    59   60   61      4
    61  -0.17928   0.90800   8.00000   0.05122    0.00000   0.00000   0.00279    60   61   62      4
    62  -0.12806   0.90800   8.00000   0.05122    0.00000   0.00000   0.00279    61   62   63      4
    63  -0.07683   0.90800   8.00000   0.05122    0.00000   0.00000   0.00279    62   63   64      4
    64  -0.02561   0.90800   8.00000   0.05122    0.00000   0.00000   0.00279    63   64   65      4
    65   0.02561   0.90800   8.00000   0.05122    0.00000   0.00000   0.00279    64   65   66      4
    66   0.07683   0.90800   8.00000   0.05122    0.00000   0.00000   0.00279    65   66   67      4
    67   0.12806   0.90800   8.00000   0.05122    0.00000   0.00000   0.00279    66   67   68      4
    68   0.17928   0.90800   8.00000   0.05122    0.00000   0.00000   0.00279    67   68   69      4
    69   0.23050   0.90800   8.00000   0.05122    0.00000   0.00000   0.00279    68   69   70      4
    70   0.28172   0.90800   8.00000   0.05122    0.00000   0.00000   0.00279    69   70   71      4
    71   0.33294   0.90800   8.00000   0.05122    0.00000   0.00000   0.00279    70   71   72      4
    72   0.38417   0.90800   8.00000   0.05122    0.00000   0.00000   0.00279    71   72   73      4
    73   0.43539   0.90800   8.00000   0.05122    0.00000   0.00000   0.00279    72   73    0      4
    74  -0.43539   1.15300   8.00000   0.05122    0.00000   0.00000   0.00265     0   74   75      5
    75  -0.38417   1.15300   8.00000   0.05122    0.00000   0.00000   0.00265    74   75   76      5
    76  -0.33294   1.15300   8.00000   0.05122    0.00000   0.00000   0.00265    75   76   77      5
    77  -0.28172   1.15300   8.00000   0.05122    0.00000   0.00000   0.00265    76   77   78      5
    78  -0.23050   1.15300   8.00000   0.05122    0.00000   0.00000   0.00265    77   78   79      5
    79  -0.17928   1.15300   8.00000   0.05122    0.00000   0.00000   0.00265    78   79   80      5
    80  -0.12806   1.15300   8.00000   0.05122    0.00000   0.00000   0.00265    79   80   81      5
    81  -0.07683   1.15300   8.00000   0.05122    0.00000   0.00000   0.00265    80   81   82      5
    82  -0.02561   1.15300   8.00000   0.05122    0.00000   0.00000   0.00265    81   82   83      5
    83   0.02561   1.15300   8.00000   0.05122    0.00000   0.00000   0.00265    82   83   84      5
    84   0.07683   1.15300   8.00000   0.05122    0.00000   0.00000   0.00265    83   84   85      5
    85   0.12806   1.15300   8.00000   0.05122    0.00000   0.00000   0.00265    84   85   86      5
    86   0.17928   1.15300   8.00000   0.05122    0.00000   0.00000   0.00265    85   86   87      5
    87   0.23050   1.15300   8.00000   0.05122    0.00000   0.00000   0.00265    86   87   88      5
    88   0.28172   1.15300   8.00000   0.05122    0.00000   0.00000   0.00265    87   88   89      5
    89   0.33294   1.15300   8.00000   0.05122    0.00000   0.00000   0.00265    88   89   90      5
    90   0.38417   1.15300   8.00000   0.05122    0.00000   0.00000   0.00265    89   90   91      5
    91   0.43539   1.15300   8.00000   0.05122    0.00000   0.00000   0.00265    90   91    0      5






 ***** DATA CARD NO.  1   GN   2     0     0     0  1.10000E+01  1.00000E-02  0.00000E+00  0.00000E+00  0.00000E+00  0.00000E+00
 ***** DATA CARD NO.  2   EK   0     0     0     0  0.00000E+00  0.00000E+00  0.00000E+00  0.00000E+00  0.00000E+00  0.00000E+00
 ***** DATA CARD NO.  3   LD   5     0     0     0  5.80000E+07  0.00000E+00  0.00000E+00  0.00000E+00  0.00000E+00  0.00000E+00
 ***** DATA CARD NO.  4   EX   0   999     1     0  1.00000E+00  0.00000E+00  0.00000E+00  0.00000E+00  0.00000E+00  0.00000E+00
 ***** DATA CARD NO.  5   FR   0     1     0     0  1.44200E+02  0.00000E+00  0.00000E+00  0.00000E+00  0.00000E+00  0.00000E+00
 ***** DATA CARD NO.  6   RP   0     1     1  1000  8.70000E+01  9.00000E+01  0.00000E+00  0.00000E+00  0.00000E+00  0.00000E+00




                                 - - - - - - FREQUENCY - - - - - -

                                    FREQUENCY= 1.4420E+02 MHZ
                                    WAVELENGTH= 2.0791E+00 METERS




                    APPROXIMATE INTEGRATION EMPLOYED FOR SEGMENTS MORE THAN   1.000 WAVELENGTHS APART

                    THE EXTENDED THIN WIRE KERNEL WILL BE USED



                               - - - STRUCTURE IMPEDANCE LOADING - - -


       LOCATION          RESISTANCE   INDUCTANCE  CAPACITANCE       IMPEDANCE (OHMS)     CONDUCTIVITY    TYPE
    ITAG FROM THRU          OHMS        HENRYS       FARADS        REAL      IMAGINARY    MHOS/METER

     ALL                                                                                 5.8000E+07     WIRE  



                                  - - - ANTENNA ENVIRONMENT - - -

                                        FINITE GROUND.  SOMMERFELD SOLUTION
                                        RELATIVE DIELECTRIC CONST.= 11.000
                                        CONDUCTIVITY= 1.000E-02 MHOS/METER
                                        COMPLEX DIELECTRIC CONSTANT= 1.10000E+01-1.24660E+00



                                - - - MATRIX TIMING - - -

                        FILL=    0.031 SEC.,  FACTOR=    0.000 SEC.



                                          - - - ANTENNA INPUT PARAMETERS - - -

   TAG   SEG.    VOLTAGE (VOLTS)         CURRENT (AMPS)         IMPEDANCE (OHMS)        ADMITTANCE (MHOS)      POWER
   NO.   NO.    REAL        IMAG.       REAL        IMAG.       REAL        IMAG.       REAL        IMAG.     (WATTS)
   999    29 1.00000E+00 0.00000E+00 1.57071E-02 1.16080E-03 6.33197E+01-4.67952E+00 1.57071E-02 1.16080E-03 7.85354E-03



                             - - - CURRENTS AND LOCATION - - -

                                 DISTANCES IN WAVELENGTHS


  SEG.  TAG    COORD. OF SEG. CENTER     SEG.            - - - CURRENT (AMPS) - - -
  NO.   NO.     X        Y        Z      LENGTH     REAL        IMAG.       MAG.        PHASE
     1    1  -0.2257   0.0000   3.8479  0.02376  -6.3310E-04  9.3964E-04  1.1330E-03  123.971
     2    1  -0.2020   0.0000   3.8479  0.02376  -1.5856E-03  2.3501E-03  2.8350E-03  124.007
     3    1  -0.1782   0.0000   3.8479  0.02376  -2.4152E-03  3.5752E-03  4.3145E-03  124.041
     4    1  -0.1544   0.0000   3.8479  0.02376  -3.1653E-03  4.6798E-03  5.6497E-03  124.074
     5    1  -0.1307   0.0000   3.8479  0.02376  -3.8318E-03  5.6591E-03  6.8343E-03  124.102
     6    1  -0.1069   0.0000   3.8479  0.02376  -4.4062E-03  6.5012E-03  7.8537E-03  124.127
     7    1  -0.0832   0.0000   3.8479  0.02376  -4.8790E-03  7.1934E-03  8.6919E-03  124.148
     8    1  -0.0594   0.0000   3.8479  0.02376  -5.2419E-03  7.7238E-03  9.3345E-03  124.163
     9    1  -0.0356   0.0000   3.8479  0.02376  -5.4878E-03  8.0830E-03  9.7699E-03  124.174
    10    1  -0.0119   0.0000   3.8479  0.02376  -5.6120E-03  8.2645E-03  9.9898E-03  124.179
    11    1   0.0119   0.0000   3.8479  0.02376  -5.6121E-03  8.2649E-03  9.9902E-03  124.178
    12    1   0.0356   0.0000   3.8479  0.02376  -5.4881E-03  8.0840E-03  9.7709E-03  124.172
    13    1   0.0594   0.0000   3.8479  0.02376  -5.2423E-03  7.7254E-03  9.3361E-03  124.160
    14    1   0.0832   0.0000   3.8479  0.02376  -4.8797E-03  7.1954E-03  8.6940E-03  124.144
    15    1   0.1069   0.0000   3.8479  0.02376  -4.4069E-03  6.5035E-03  7.8560E-03  124.122
    16    1   0.1307   0.0000   3.8479  0.02376  -3.8326E-03  5.6614E-03  6.8367E-03  124.097
    17    1   0.1544   0.0000   3.8479  0.02376  -3.1661E-03  4.6820E-03  5.6520E-03  124.068
    18    1   0.1782   0.0000   3.8479  0.02376  -2.4159E-03  3.5770E-03  4.3164E-03  124.036
    19    1   0.2020   0.0000   3.8479  0.02376  -1.5861E-03  2.3514E-03  2.8363E-03  124.001
    20    1   0.2257   0.0000   3.8479  0.02376  -6.3335E-04  9.4018E-04  1.1336E-03  123.966
    21    2  -0.2116   0.2708   3.8479  0.02501   2.5139E-03 -3.7892E-04  2.5423E-03   -8.572
    22    2  -0.1866   0.2708   3.8479  0.02501   5.4783E-03 -6.5447E-04  5.5172E-03   -6.813
    23    2  -0.1616   0.2708   3.8479  0.02501   7.9271E-03 -7.1681E-04  7.9594E-03   -5.167
    24    2  -0.1366   0.2708   3.8479  0.02501   1.0070E-02 -6.4785E-04  1.0091E-02   -3.681
    25    2  -0.1116   0.2708   3.8479  0.02501   1.1903E-02 -4.7702E-04  1.1912E-02   -2.295
    26    2  -0.0866   0.2708   3.8479  0.02501   1.3405E-02 -2.1984E-04  1.3407E-02   -0.940
    27    2  -0.0616   0.2708   3.8479  0.02501   1.4553E-02  1.1994E-04  1.4553E-02    0.472
    28    2  -0.0366   0.2708   3.8479  0.02501   1.5325E-02  5.8690E-04  1.5336E-02    2.193
    29  999  -0.0115   0.2708   3.8479  0.02501   1.5707E-02  1.1608E-03  1.5750E-02    4.227
    30    2   0.0149   0.2708   3.8479  0.02790   1.5678E-02  5.4349E-04  1.5687E-02    1.985
    31    2   0.0428   0.2708   3.8479  0.02790   1.5166E-02  1.8145E-05  1.5166E-02    0.069
    32    2   0.0707   0.2708   3.8479  0.02790   1.4172E-02 -3.6323E-04  1.4177E-02   -1.468
    33    2   0.0986   0.2708   3.8479  0.02790   1.2721E-02 -6.4845E-04  1.2737E-02   -2.918
    34    2   0.1265   0.2708   3.8479  0.02790   1.0843E-02 -8.3183E-04  1.0874E-02   -4.387
    35    2   0.1544   0.2708   3.8479  0.02790   8.5697E-03 -8.9479E-04  8.6163E-03   -5.961
    36    2   0.1823   0.2708   3.8479  0.02790   5.9199E-03 -8.0242E-04  5.9740E-03   -7.719
    37    2   0.2102   0.2708   3.8479  0.02790   2.6831E-03 -4.5512E-04  2.7214E-03   -9.627
    38    3  -0.2094   0.3338   3.8479  0.02464   3.8364E-04 -1.6565E-03  1.7004E-03  -76.961
    39    3  -0.1848   0.3338   3.8479  0.02464   9.1077E-04 -4.1333E-03  4.2324E-03  -77.573
    40    3  -0.1601   0.3338   3.8479  0.02464   1.3230E-03 -6.2489E-03  6.3874E-03  -78.046
    41    3  -0.1355   0.3338   3.8479  0.02464   1.6685E-03 -8.1190E-03  8.2887E-03  -78.387
    42    3  -0.1109   0.3338   3.8479  0.02464   1.9570E-03 -9.7345E-03  9.9293E-03  -78.633
    43    3  -0.0862   0.3338   3.8479  0.02464   2.1905E-03 -1.1072E-02  1.1287E-02  -78.810
    44    3  -0.0616   0.3338   3.8479  0.02464   2.3678E-03 -1.2106E-02  1.2336E-02  -78.933
    45    3  -0.0370   0.3338   3.8479  0.02464   2.4874E-03 -1.2811E-02  1.3050E-02  -79.012
    46    3  -0.0123   0.3338   3.8479  0.02464   2.5475E-03 -1.3163E-02  1.3407E-02  -79.047
    47    3   0.0123   0.3338   3.8479  0.02464   2.5474E-03 -1.3152E-02  1.3397E-02  -79.038
    48    3   0.0370   0.3338   3.8479  0.02464   2.4871E-03 -1.2782E-02  1.3022E-02  -78.989
    49    3   0.0616   0.3338   3.8479  0.02464   2.3674E-03 -1.2069E-02  1.2299E-02  -78.902
    50    3   0.0862   0.3338   3.8479  0.02464   2.1899E-03 -1.1033E-02  1.1248E-02  -78.774
    51    3   0.1109   0.3338   3.8479  0.02464   1.9564E-03 -9.6982E-03  9.8936E-03  -78.595
    52    3   0.1355   0.3338   3.8479  0.02464   1.6679E-03 -8.0886E-03  8.2587E-03  -78.349
    53    3   0.1601   0.3338   3.8479  0.02464   1.3225E-03 -6.2261E-03  6.3650E-03  -78.008
    54    3   0.1848   0.3338   3.8479  0.02464   9.1040E-04 -4.1192E-03  4.2186E-03  -77.537
    55    3   0.2094   0.3338   3.8479  0.02464   3.8351E-04 -1.6514E-03  1.6954E-03  -76.926
    56    4  -0.2094   0.4367   3.8479  0.02464  -9.3889E-04 -4.9985E-04  1.0637E-03 -151.970
