1



                                 *********************************************

                                    NUMERICAL ELECTROMAGNETICS CODE (NEC-2D)

                                 *********************************************




                                     - - - - COMMENTS - - - -


                          No comments specified                                                      
                                                                                                     




                                 - - - STRUCTURE SPECIFICATION - - -

                                     COORDINATES MUST BE INPUT IN
                                     METERS OR BE SCALED TO METERS
                                     BEFORE STRUCTURE INPUT IS ENDED


  WIRE                                                                               NO. OF    FIRST  LAST     TAG
  NO.        X1         Y1         Z1          X2         Y2         Z2      RADIUS   SEG.     SEG.   SEG.     NO.
     1    0.14000    0.00000    0.12000     0.02601    0.00000    0.12000    0.00050      2        1     2       1
     2    0.02601    0.00000    0.12000    -0.02601    0.00000    0.12000    0.00050      1        3     3     999
     3   -0.02601    0.00000    0.12000    -0.14000    0.00000    0.12000    0.00050      2        4     5       1
     4   -0.14000    0.00000   -0.60000    -0.14000    0.00000    0.60000    0.00050     23        6    28       2
     5    0.14000    0.00000   -0.60000     0.14000    0.00000    0.60000    0.00050     23       29    51       2
     6   -0.14000    0.00000   -0.60000     0.14000    0.00000   -0.60000    0.00050      5       52    56       2
     7   -0.14000    0.00000    0.60000     0.14000    0.00000    0.60000    0.00050      5       57    61       2
      THE STRUCTURE HAS BEEN MOVED, MOVE DATA CARD IS -
        0    0   0.00000   0.00000   0.00000   0.00000   0.00000   8.00000   0.00000

   GROUND PLANE SPECIFIED.

   WHERE WIRE ENDS TOUCH GROUND, CURRENT WILL BE INTERPOLATED TO IMAGE IN GROUND PLANE.


   TOTAL SEGMENTS USED=   61     NO. SEG. IN A SYMMETRIC CELL=   61     SYMMETRY FLAG=  0


         - MULTIPLE WIRE JUNCTIONS -
 JUNCTION    SEGMENTS  (- FOR END 1, + FOR END 2)
  NONE




                                 - - - - SEGMENTATION DATA - - - -

                                        COORDINATES IN METERS

                         I+ AND I- INDICATE THE SEGMENTS BEFORE AND AFTER I


  SEG.   COORDINATES OF SEG. CENTER     SEG.     ORIENTATION ANGLES    WIRE    CONNECTION DATA   TAG
  NO.       X         Y         Z       LENGTH     ALPHA     BETA      RADIUS    I-   I    I+    NO.
     1   0.11150   0.00000   8.12000   0.05700    0.00000 180.00000   0.00050     0    1    2      1
     2   0.05450   0.00000   8.12000   0.05700    0.00000 180.00000   0.00050     1    2    3      1
     3   0.00000   0.00000   8.12000   0.05201    0.00000 180.00000   0.00050     2    3    4    999
     4  -0.05450   0.00000   8.12000   0.05700    0.00000 180.00000   0.00050     3    4    5      1
     5  -0.11150   0.00000   8.12000   0.05700    0.00000 180.00000   0.00050     4    5    0      1
     6  -0.14000   0.00000   7.42609   0.05217   90.00000   0.00000   0.00050   -52    6    7      2
     7  -0.14000   0.00000   7.47826   0.05217   90.00000   0.00000   0.00050     6    7    8      2
     8  -0.14000   0.00000   7.53043   0.05217   90.00000   0.00000   0.00050     7    8    9      2
     9  -0.14000   0.00000   7.58261   0.05217   90.00000   0.00000   0.00050     8    9   10      2
    10  -0.14000   0.00000   7.63478   0.05217   90.00000   0.00000   0.00050     9   10   11      2
    11  -0.14000   0.00000   7.68696   0.05217   90.00000   0.00000   0.00050    10   11   12      2
    12  -0.14000   0.00000   7.73913   0.05217   90.00000   0.00000   0.00050    11   12   13      2
    13  -0.14000   0.00000   7.79130   0.05217   90.00000   0.00000   0.00050    12   13   14      2
    14  -0.14000   0.00000   7.84348   0.05217   90.00000   0.00000   0.00050    13   14   15      2
    15  -0.14000   0.00000   7.89565   0.05217   90.00000   0.00000   0.00050    14   15   16      2
    16  -0.14000   0.00000   7.94783   0.05217   90.00000   0.00000   0.00050    15   16   17      2
    17  -0.14000   0.00000   8.00000   0.05217   90.00000   0.00000   0.00050    16   17   18      2
    18  -0.14000   0.00000   8.05217   0.05217   90.00000   0.00000   0.00050    17   18   19      2
    19  -0.14000   0.00000   8.10435   0.05217   90.00000   0.00000   0.00050    18   19   20      2
    20  -0.14000   0.00000   8.15652   0.05217   90.00000   0.00000   0.00050    19   20   21      2
    21  -0.14000   0.00000   8.20870   0.05217   90.00000   0.00000   0.00050    20   21   22      2
    22  -0.14000   0.00000   8.26087   0.05217   90.00000   0.00000   0.00050    21   22   23      2
    23  -0.14000   0.00000   8.31304   0.05217   90.00000   0.00000   0.00050    22   23   24      2
    24  -0.14000   0.00000   8.36522   0.05217   90.00000   0.00000   0.00050    23   24   25      2
    25  -0.14000   0.00000   8.41739   0.05217   90.00000   0.00000   0.00050    24   25   26      2
    26  -0.14000   0.00000   8.46957   0.05217   90.00000   0.00000   0.00050    25   26   27      2
    27  -0.14000   0.00000   8.52174   0.05217   90.00000   0.00000   0.00050    26   27   28      2
    28  -0.14000   0.00000   8.57391   0.05217   90.00000   0.00000   0.00050    27   28   57      2
    29   0.14000   0.00000   7.42609   0.05217   90.00000   0.00000   0.00050    56   29   30      2
    30   0.14000   0.00000   7.47826   0.05217   90.00000   0.00000   0.00050    29   30   31      2
    31   0.14000   0.00000   7.53043   0.05217   90.00000   0.00000   0.00050    30   31   32      2
    32   0.14000   0.00000   7.58261   0.05217   90.00000   0.00000   0.00050    31   32   33      2
    33   0.14000   0.00000   7.63478   0.05217   90.00000   0.00000   0.00050    32   33   34      2
    34   0.14000   0.00000   7.68696   0.05217   90.00000   0.00000   0.00050    33   34   35      2
    35   0.14000   0.00000   7.73913   0.05217   90.00000   0.00000   0.00050    34   35   36      2
    36   0.14000   0.00000   7.79130   0.05217   90.00000   0.00000   0.00050    35   36   37      2
    37   0.14000   0.00000   7.84348   0.05217   90.00000   0.00000   0.00050    36   37   38      2
    38   0.14000   0.00000   7.89565   0.05217   90.00000   0.00000   0.00050    37   38   39      2
    39   0.14000   0.00000   7.94783   0.05217   90.00000   0.00000   0.00050    38   39   40      2
    40   0.14000   0.00000   8.00000   0.05217   90.00000   0.00000   0.00050    39   40   41      2
    41   0.14000   0.00000   8.05217   0.05217   90.00000   0.00000   0.00050    40   41   42      2
    42   0.14000   0.00000   8.10435   0.05217   90.00000   0.00000   0.00050    41   42   43      2
    43   0.14000   0.00000   8.15652   0.05217   90.00000   0.00000   0.00050    42   43   44      2
    44   0.14000   0.00000   8.20870   0.05217   90.00000   0.00000   0.00050    43   44   45      2
    45   0.14000   0.00000   8.26087   0.05217   90.00000   0.00000   0.00050    44   45   46      2
    46   0.14000   0.00000   8.31304   0.05217   90.00000   0.00000   0.00050    45   46   47      2
    47   0.14000   0.00000   8.36522   0.05217   90.00000   0.00000   0.00050    46   47   48      2
    48   0.14000   0.00000   8.41739   0.05217   90.00000   0.00000   0.00050    47   48   49      2
    49   0.14000   0.00000   8.46957   0.05217   90.00000   0.00000   0.00050    48   49   50      2
    50   0.14000   0.00000   8.52174   0.05217   90.00000   0.00000   0.00050    49   50   51      2
    51   0.14000   0.00000   8.57391   0.05217   90.00000   0.00000   0.00050    50   51  -61      2
    52  -0.11200   0.00000   7.40000   0.05600    0.00000   0.00000   0.00050    -6   52   53      2
    53  -0.05600   0.00000   7.40000   0.05600    0.00000   0.00000   0.00050    52   53   54      2
    54   0.00000   0.00000   7.40000   0.05600    0.00000   0.00000   0.00050    53   54   55      2
    55   0.05600   0.00000   7.40000   0.05600    0.00000   0.00000   0.00050    54   55   56      2
    56   0.11200   0.00000   7.40000   0.05600    0.00000   0.00000   0.00050    55   56   29      2
    57  -0.11200   0.00000   8.60000   0.05600    0.00000   0.00000   0.00050    28   57   58      2
    58  -0.05600   0.00000   8.60000   0.05600    0.00000   0.00000   0.00050    57   58   59      2
    59   0.00000   0.00000   8.60000   0.05600    0.00000   0.00000   0.00050    58   59   60      2
    60   0.05600   0.00000   8.60000   0.05600    0.00000   0.00000   0.00050    59   60   61      2
    61   0.11200   0.00000   8.60000   0.05600    0.00000   0.00000   0.00050    60   61  -51      2






 ***** DATA CARD NO.  1   GN   2     0     0     0  1.10000E+01  1.00000E-02  0.00000E+00  0.00000E+00  0.00000E+00  0.00000E+00
 ***** DATA CARD NO.  2   LD   5     0     0     0  5.80000E+07  0.00000E+00  0.00000E+00  0.00000E+00  0.00000E+00  0.00000E+00
 ***** DATA CARD NO.  3   EX   0   999     1     0  1.00000E+00  0.00000E+00  0.00000E+00  0.00000E+00  0.00000E+00  0.00000E+00
 ***** DATA CARD NO.  4   FR   0     1     0     0  1.44200E+02  0.00000E+00  0.00000E+00  0.00000E+00  0.00000E+00  0.00000E+00
 ***** DATA CARD NO.  5   RP   0     1     1  1000  8.50000E+01  0.00000E+00  0.00000E+00  0.00000E+00  0.00000E+00  0.00000E+00




                                 - - - - - - FREQUENCY - - - - - -

                                    FREQUENCY= 1.4420E+02 MHZ
                                    WAVELENGTH= 2.0791E+00 METERS




                    APPROXIMATE INTEGRATION EMPLOYED FOR SEGMENTS MORE THAN   1.000 WAVELENGTHS APART



                               - - - STRUCTURE IMPEDANCE LOADING - - -


       LOCATION          RESISTANCE   INDUCTANCE  CAPACITANCE       IMPEDANCE (OHMS)     CONDUCTIVITY    TYPE
    ITAG FROM THRU          OHMS        HENRYS       FARADS        REAL      IMAGINARY    MHOS/METER

     ALL                                                                                 5.8000E+07     WIRE  



                                  - - - ANTENNA ENVIRONMENT - - -

                                        FINITE GROUND.  SOMMERFELD SOLUTION
                                        RELATIVE DIELECTRIC CONST.= 11.000
                                        CONDUCTIVITY= 1.000E-02 MHOS/METER
                                        COMPLEX DIELECTRIC CONSTANT= 1.10000E+01-1.24660E+00



                                - - - MATRIX TIMING - - -

                        FILL=    0.016 SEC.,  FACTOR=    0.000 SEC.



                                          - - - ANTENNA INPUT PARAMETERS - - -

   TAG   SEG.    VOLTAGE (VOLTS)         CURRENT (AMPS)         IMPEDANCE (OHMS)        ADMITTANCE (MHOS)      POWER
   NO.   NO.    REAL        IMAG.       REAL        IMAG.       REAL        IMAG.       REAL        IMAG.     (WATTS)
   999     3 1.00000E+00 0.00000E+00 3.35313E-06 7.65378E-04 5.72388E+00-1.30652E+03 3.35313E-06 7.65378E-04 1.67657E-06



                             - - - CURRENTS AND LOCATION - - -

                                 DISTANCES IN WAVELENGTHS


  SEG.  TAG    COORD. OF SEG. CENTER     SEG.            - - - CURRENT (AMPS) - - -
  NO.   NO.     X        Y        Z      LENGTH     REAL        IMAG.       MAG.        PHASE
     1    1   0.0536   0.0000   3.9056  0.02741   1.4667E-06  1.9613E-04  1.9614E-04   89.572
     2    1   0.0262   0.0000   3.9056  0.02741   2.9459E-06  5.2295E-04  5.2296E-04   89.677
     3  999   0.0000   0.0000   3.9056  0.02502   3.3531E-06  7.6538E-04  7.6539E-04   89.749
     4    1  -0.0262   0.0000   3.9056  0.02741   2.9459E-06  5.2295E-04  5.2296E-04   89.677
     5    1  -0.0536   0.0000   3.9056  0.02741   1.4667E-06  1.9613E-04  1.9614E-04   89.572
     6    2  -0.0673   0.0000   3.5719  0.02509  -4.7124E-06  2.8413E-04  2.8416E-04   90.950
     7    2  -0.0673   0.0000   3.5969  0.02509  -5.9709E-06  2.6015E-04  2.6022E-04   91.315
     8    2  -0.0673   0.0000   3.6220  0.02509  -7.0876E-06  2.2996E-04  2.3007E-04   91.765
     9    2  -0.0673   0.0000   3.6471  0.02509  -8.0442E-06  1.9421E-04  1.9438E-04   92.372
    10    2  -0.0673   0.0000   3.6722  0.02509  -8.8243E-06  1.5376E-04  1.5401E-04   93.285
    11    2  -0.0673   0.0000   3.6973  0.02509  -9.4145E-06  1.0959E-04  1.0999E-04   94.910
    12    2  -0.0673   0.0000   3.7224  0.02509  -9.8054E-06  6.2772E-05  6.3533E-05   98.878
    13    2  -0.0673   0.0000   3.7475  0.02509  -9.9913E-06  1.4505E-05  1.7613E-05  124.560
    14    2  -0.0673   0.0000   3.7726  0.02509  -9.9714E-06 -3.3949E-05  3.5383E-05 -106.368
    15    2  -0.0673   0.0000   3.7977  0.02509  -9.7489E-06 -8.1213E-05  8.1796E-05  -96.845
    16    2  -0.0673   0.0000   3.8228  0.02509  -9.3310E-06 -1.2569E-04  1.2603E-04  -94.246
    17    2  -0.0673   0.0000   3.8479  0.02509  -8.7264E-06 -1.6519E-04  1.6542E-04  -93.024
    18    2  -0.0673   0.0000   3.8730  0.02509  -7.9398E-06 -1.9583E-04  1.9599E-04  -92.322
    19    2  -0.0673   0.0000   3.8981  0.02509  -6.8431E-06 -1.9545E-04  1.9557E-04  -92.005
    20    2  -0.0673   0.0000   3.9232  0.02509  -4.9122E-06 -9.4250E-05  9.4378E-05  -92.984
    21    2  -0.0673   0.0000   3.9483  0.02509  -3.1342E-06 -2.3189E-05  2.3400E-05  -97.698
    22    2  -0.0673   0.0000   3.9734  0.02509  -1.4649E-06  2.9146E-05  2.9183E-05   92.877
    23    2  -0.0673   0.0000   3.9985  0.02509   1.3672E-07  7.4310E-05  7.4310E-05   89.895
    24    2  -0.0673   0.0000   4.0236  0.02509   1.6491E-06  1.1466E-04  1.1467E-04   89.176
    25    2  -0.0673   0.0000   4.0487  0.02509   3.0421E-06  1.5062E-04  1.5065E-04   88.843
    26    2  -0.0673   0.0000   4.0738  0.02509   4.2847E-06  1.8199E-04  1.8204E-04   88.651
    27    2  -0.0673   0.0000   4.0988  0.02509   5.3487E-06  2.0837E-04  2.0844E-04   88.530
    28    2  -0.0673   0.0000   4.1239  0.02509   6.2094E-06  2.2936E-04  2.2945E-04   88.449
    29    2   0.0673   0.0000   3.5719  0.02509   4.7124E-06 -2.8413E-04  2.8416E-04  -89.050
    30    2   0.0673   0.0000   3.5969  0.02509   5.9709E-06 -2.6015E-04  2.6022E-04  -88.685
    31    2   0.0673   0.0000   3.6220  0.02509   7.0876E-06 -2.2996E-04  2.3007E-04  -88.235
    32    2   0.0673   0.0000   3.6471  0.02509   8.0441E-06 -1.9421E-04  1.9438E-04  -87.628
    33    2   0.0673   0.0000   3.6722  0.02509   8.8243E-06 -1.5376E-04  1.5401E-04  -86.715
    34    2   0.0673   0.0000   3.6973  0.02509   9.4145E-06 -1.0959E-04  1.0999E-04  -85.090
    35    2   0.0673   0.0000   3.7224  0.02509   9.8054E-06 -6.2772E-05  6.3533E-05  -81.122
    36    2   0.0673   0.0000   3.7475  0.02509   9.9913E-06 -1.4505E-05  1.7613E-05  -55.440
    37    2   0.0673   0.0000   3.7726  0.02509   9.9714E-06  3.3949E-05  3.5383E-05   73.632
    38    2   0.0673   0.0000   3.7977  0.02509   9.7489E-06  8.1213E-05  8.1796E-05   83.155
    39    2   0.0673   0.0000   3.8228  0.02509   9.3310E-06  1.2569E-04  1.2603E-04   85.754
    40    2   0.0673   0.0000   3.8479  0.02509   8.7264E-06  1.6519E-04  1.6542E-04   86.976
    41    2   0.0673   0.0000   3.8730  0.02509   7.9398E-06  1.9583E-04  1.9599E-04   87.678
    42    2   0.0673   0.0000   3.8981  0.02509   6.8431E-06  1.9545E-04  1.9557E-04   87.995
    43    2   0.0673   0.0000   3.9232  0.02509   4.9122E-06  9.4250E-05  9.4378E-05   87.016
    44    2   0.0673   0.0000   3.9483  0.02509   3.1342E-06  2.3189E-05  2.3400E-05   82.302
    45    2   0.0673   0.0000   3.9734  0.02509   1.4649E-06 -2.9146E-05  2.9183E-05  -87.123
    46    2   0.0673   0.0000   3.9985  0.02509  -1.3672E-07 -7.4310E-05  7.4310E-05  -90.105
    47    2   0.0673   0.0000   4.0236  0.02509  -1.6491E-06 -1.1466E-04  1.1467E-04  -90.824
    48    2   0.0673   0.0000   4.0487  0.02509  -3.0421E-06 -1.5062E-04  1.5065E-04  -91.157
    49    2   0.0673   0.0000   4.0738  0.02509  -4.2847E-06 -1.8199E-04  1.8204E-04  -91.349
    50    2   0.0673   0.0000   4.0988  0.02509  -5.3487E-06 -2.0837E-04  2.0844E-04  -91.470
    51    2   0.0673   0.0000   4.1239  0.02509  -6.2094E-06 -2.2936E-04  2.2945E-04  -91.551
    52    2  -0.0539   0.0000   3.5593  0.02694   3.3696E-06 -3.0201E-04  3.0203E-04  -89.361
    53    2  -0.0269   0.0000   3.5593  0.02694   2.4948E-06 -3.1339E-04  3.1340E-04  -89.544
    54    2   0.0000   0.0000   3.5593  0.02694   2.2047E-06 -3.1723E-04  3.1724E-04  -89.602
    55    2   0.0269   0.0000   3.5593  0.02694   2.4948E-06 -3.1339E-04  3.1340E-04  -89.544
    56    2   0.0539   0.0000   3.5593  0.02694   3.3696E-06 -3.0201E-04  3.0203E-04  -89.361
    57    2  -0.0539   0.0000   4.1365  0.02694   6.8641E-06  2.4515E-04  2.4525E-04   88.396
    58    2  -0.0269   0.0000   4.1365  0.02694   7.2772E-06  2.5521E-04  2.5532E-04   88.367
    59    2   0.0000   0.0000   4.1365  0.02694   7.4156E-06  2.5860E-04  2.5871E-04   88.357
    60    2   0.0269   0.0000   4.1365  0.02694   7.2772E-06  2.5521E-04  2.5532E-04   88.367
    61    2   0.0539   0.0000   4.1365  0.02694   6.8641E-06  2.4515E-04  2.4525E-04   88.396



                                        - - - POWER BUDGET - - -

                                           INPUT POWER   = 1.6766E-06 WATTS
                                           RADIATED POWER= 1.5908E-06 WATTS
                                           STRUCTURE LOSS= 8.5809E-08 WATTS
                                           NETWORK LOSS  = 0.0000E+00 WATTS
                                           EFFICIENCY    =  94.88 PERCENT



                                                - - - RADIATION PATTERNS - - -

  - - ANGLES - -           - POWER GAINS -       - - - POLARIZATION - - -    - - - E(THETA) - - -    - - - E(PHI) - - -
  THETA     PHI        VERT.   HOR.    TOTAL      AXIAL     TILT   SENSE     MAGNITUDE    PHASE      MAGNITUDE    PHASE 
 DEGREES  DEGREES       DB      DB      DB        RATIO     DEG.              VOLTS/M    DEGREES      VOLTS/M    DEGREES
   85.00     0.00      -3.35 -999.99   -3.35    0.00000     0.00  LINEAR    6.81954E-03  -160.53    0.00000E+00     0.00






 ***** DATA CARD NO.  6   EN   0     1     1  1000  8.50000E+01  0.00000E+00  0.00000E+00  0.00000E+00  0.00000E+00  0.00000E+00

 RUN TIME =     0.094
