1



                                 *********************************************

                                    NUMERICAL ELECTROMAGNETICS CODE (NEC-2D)

                                 *********************************************




                                     - - - - COMMENTS - - - -


                          No comments specified                                                      
                                                                                                     




                                 - - - STRUCTURE SPECIFICATION - - -

                                     COORDINATES MUST BE INPUT IN
                                     METERS OR BE SCALED TO METERS
                                     BEFORE STRUCTURE INPUT IS ENDED


  WIRE                                                                               NO. OF    FIRST  LAST     TAG
  NO.        X1         Y1         Z1          X2         Y2         Z2      RADIUS   SEG.     SEG.   SEG.     NO.
     1    0.14000    0.00000   -0.38500     0.02600    0.00000   -0.38500    0.00300      2        1     2       1
     2    0.02600    0.00000   -0.38500    -0.02600    0.00000   -0.38500    0.00300      1        3     3     999
     3   -0.02600    0.00000   -0.38500    -0.14000    0.00000   -0.38500    0.00300      2        4     5       1
     4    0.14000    0.00000   -0.38500     0.14000    0.00000    0.50500    0.00300     17        6    22       3
     5   -0.14000    0.00000   -0.38500    -0.14000    0.00000    0.50500    0.00300     17       23    39       3
     6   -0.14000    0.00000   -0.50500    -0.14000    0.00000   -0.38500    0.00300      2       40    41       2
     7    0.14000    0.00000   -0.50500     0.14000    0.00000   -0.38500    0.00300      2       42    43       2
     8   -0.14000    0.00000   -0.50500     0.14000    0.00000   -0.50500    0.00300      5       44    48       2
     9   -0.14000    0.00000    0.50500     0.14000    0.00000    0.50500    0.00300      5       49    53       2
      THE STRUCTURE HAS BEEN MOVED, MOVE DATA CARD IS -
        0    0   0.00000   0.00000   0.00000   0.00000   0.00000   8.00000   0.00000

   GROUND PLANE SPECIFIED.

   WHERE WIRE ENDS TOUCH GROUND, CURRENT WILL BE INTERPOLATED TO IMAGE IN GROUND PLANE.


   TOTAL SEGMENTS USED=   53     NO. SEG. IN A SYMMETRIC CELL=   53     SYMMETRY FLAG=  0


         - MULTIPLE WIRE JUNCTIONS -
 JUNCTION    SEGMENTS  (- FOR END 1, + FOR END 2)
     1        -1   -6   43
     2         5  -23   41




                                 - - - - SEGMENTATION DATA - - - -

                                        COORDINATES IN METERS

                         I+ AND I- INDICATE THE SEGMENTS BEFORE AND AFTER I


  SEG.   COORDINATES OF SEG. CENTER     SEG.     ORIENTATION ANGLES    WIRE    CONNECTION DATA   TAG
  NO.       X         Y         Z       LENGTH     ALPHA     BETA      RADIUS    I-   I    I+    NO.
     1   0.11150   0.00000   7.61500   0.05700    0.00000 180.00000   0.00300    -6    1    2      1
     2   0.05450   0.00000   7.61500   0.05700    0.00000 180.00000   0.00300     1    2    3      1
     3   0.00000   0.00000   7.61500   0.05200    0.00000 180.00000   0.00300     2    3    4    999
     4  -0.05450   0.00000   7.61500   0.05700    0.00000 180.00000   0.00300     3    4    5      1
     5  -0.11150   0.00000   7.61500   0.05700    0.00000 180.00000   0.00300     4    5   23      1
     6   0.14000   0.00000   7.64118   0.05235   90.00000   0.00000   0.00300    43    6    7      3
     7   0.14000   0.00000   7.69353   0.05235   90.00000   0.00000   0.00300     6    7    8      3
     8   0.14000   0.00000   7.74588   0.05235   90.00000   0.00000   0.00300     7    8    9      3
     9   0.14000   0.00000   7.79824   0.05235   90.00000   0.00000   0.00300     8    9   10      3
    10   0.14000   0.00000   7.85059   0.05235   90.00000   0.00000   0.00300     9   10   11      3
    11   0.14000   0.00000   7.90294   0.05235   90.00000   0.00000   0.00300    10   11   12      3
    12   0.14000   0.00000   7.95529   0.05235   90.00000   0.00000   0.00300    11   12   13      3
    13   0.14000   0.00000   8.00765   0.05235   90.00000   0.00000   0.00300    12   13   14      3
    14   0.14000   0.00000   8.06000   0.05235   90.00000   0.00000   0.00300    13   14   15      3
    15   0.14000   0.00000   8.11235   0.05235   90.00000   0.00000   0.00300    14   15   16      3
    16   0.14000   0.00000   8.16471   0.05235   90.00000   0.00000   0.00300    15   16   17      3
    17   0.14000   0.00000   8.21706   0.05235   90.00000   0.00000   0.00300    16   17   18      3
    18   0.14000   0.00000   8.26941   0.05235   90.00000   0.00000   0.00300    17   18   19      3
    19   0.14000   0.00000   8.32176   0.05235   90.00000   0.00000   0.00300    18   19   20      3
    20   0.14000   0.00000   8.37412   0.05235   90.00000   0.00000   0.00300    19   20   21      3
    21   0.14000   0.00000   8.42647   0.05235   90.00000   0.00000   0.00300    20   21   22      3
    22   0.14000   0.00000   8.47882   0.05235   90.00000   0.00000   0.00300    21   22  -53      3
    23  -0.14000   0.00000   7.64118   0.05235   90.00000   0.00000   0.00300    41   23   24      3
    24  -0.14000   0.00000   7.69353   0.05235   90.00000   0.00000   0.00300    23   24   25      3
    25  -0.14000   0.00000   7.74588   0.05235   90.00000   0.00000   0.00300    24   25   26      3
    26  -0.14000   0.00000   7.79824   0.05235   90.00000   0.00000   0.00300    25   26   27      3
    27  -0.14000   0.00000   7.85059   0.05235   90.00000   0.00000   0.00300    26   27   28      3
    28  -0.14000   0.00000   7.90294   0.05235   90.00000   0.00000   0.00300    27   28   29      3
    29  -0.14000   0.00000   7.95529   0.05235   90.00000   0.00000   0.00300    28   29   30      3
    30  -0.14000   0.00000   8.00765   0.05235   90.00000   0.00000   0.00300    29   30   31      3
    31  -0.14000   0.00000   8.06000   0.05235   90.00000   0.00000   0.00300    30   31   32      3
    32  -0.14000   0.00000   8.11235   0.05235   90.00000   0.00000   0.00300    31   32   33      3
    33  -0.14000   0.00000   8.16471   0.05235   90.00000   0.00000   0.00300    32   33   34      3
    34  -0.14000   0.00000   8.21706   0.05235   90.00000   0.00000   0.00300    33   34   35      3
    35  -0.14000   0.00000   8.26941   0.05235   90.00000   0.00000   0.00300    34   35   36      3
    36  -0.14000   0.00000   8.32176   0.05235   90.00000   0.00000   0.00300    35   36   37      3
    37  -0.14000   0.00000   8.37412   0.05235   90.00000   0.00000   0.00300    36   37   38      3
    38  -0.14000   0.00000   8.42647   0.05235   90.00000   0.00000   0.00300    37   38   39      3
    39  -0.14000   0.00000   8.47882   0.05235   90.00000   0.00000   0.00300    38   39   49      3
    40  -0.14000   0.00000   7.52500   0.06000   90.00000   0.00000   0.00300   -44   40   41      2
    41  -0.14000   0.00000   7.58500   0.06000   90.00000   0.00000   0.00300    40   41   -5      2
    42   0.14000   0.00000   7.52500   0.06000   90.00000   0.00000   0.00300    48   42   43      2
    43   0.14000   0.00000   7.58500   0.06000   90.00000   0.00000   0.00300    42   43    1      2
    44  -0.11200   0.00000   7.49500   0.05600    0.00000   0.00000   0.00300   -40   44   45      2
    45  -0.05600   0.00000   7.49500   0.05600    0.00000   0.00000   0.00300    44   45   46      2
    46   0.00000   0.00000   7.49500   0.05600    0.00000   0.00000   0.00300    45   46   47      2
    47   0.05600   0.00000   7.49500   0.05600    0.00000   0.00000   0.00300    46   47   48      2
    48   0.11200   0.00000   7.49500   0.05600    0.00000   0.00000   0.00300    47   48   42      2
    49  -0.11200   0.00000   8.50500   0.05600    0.00000   0.00000   0.00300    39   49   50      2
    50  -0.05600   0.00000   8.50500   0.05600    0.00000   0.00000   0.00300    49   50   51      2
    51   0.00000   0.00000   8.50500   0.05600    0.00000   0.00000   0.00300    50   51   52      2
    52   0.05600   0.00000   8.50500   0.05600    0.00000   0.00000   0.00300    51   52   53      2
    53   0.11200   0.00000   8.50500   0.05600    0.00000   0.00000   0.00300    52   53  -22      2






 ***** DATA CARD NO.  1   GN   2     0     0     0  1.10000E+01  1.00000E-02  0.00000E+00  0.00000E+00  0.00000E+00  0.00000E+00
 ***** DATA CARD NO.  2   LD   5     0     0     0  5.80000E+07  0.00000E+00  0.00000E+00  0.00000E+00  0.00000E+00  0.00000E+00
 ***** DATA CARD NO.  3   EX   0   999     1     0  1.00000E+00  0.00000E+00  0.00000E+00  0.00000E+00  0.00000E+00  0.00000E+00
 ***** DATA CARD NO.  4   FR   0     1     0     0  1.44200E+02  0.00000E+00  0.00000E+00  0.00000E+00  0.00000E+00  0.00000E+00
 ***** DATA CARD NO.  5   RP   0     1     1  1000  8.50000E+01  9.00000E+01  0.00000E+00  0.00000E+00  0.00000E+00  0.00000E+00




                                 - - - - - - FREQUENCY - - - - - -

                                    FREQUENCY= 1.4420E+02 MHZ
                                    WAVELENGTH= 2.0791E+00 METERS




                    APPROXIMATE INTEGRATION EMPLOYED FOR SEGMENTS MORE THAN   1.000 WAVELENGTHS APART



                               - - - STRUCTURE IMPEDANCE LOADING - - -


       LOCATION          RESISTANCE   INDUCTANCE  CAPACITANCE       IMPEDANCE (OHMS)     CONDUCTIVITY    TYPE
    ITAG FROM THRU          OHMS        HENRYS       FARADS        REAL      IMAGINARY    MHOS/METER

     ALL                                                                                 5.8000E+07     WIRE  



                                  - - - ANTENNA ENVIRONMENT - - -

                                        FINITE GROUND.  SOMMERFELD SOLUTION
                                        RELATIVE DIELECTRIC CONST.= 11.000
                                        CONDUCTIVITY= 1.000E-02 MHOS/METER
                                        COMPLEX DIELECTRIC CONSTANT= 1.10000E+01-1.24660E+00



                                - - - MATRIX TIMING - - -

                        FILL=    0.000 SEC.,  FACTOR=    0.000 SEC.



                                          - - - ANTENNA INPUT PARAMETERS - - -

   TAG   SEG.    VOLTAGE (VOLTS)         CURRENT (AMPS)         IMPEDANCE (OHMS)        ADMITTANCE (MHOS)      POWER
   NO.   NO.    REAL        IMAG.       REAL        IMAG.       REAL        IMAG.       REAL        IMAG.     (WATTS)
   999     3 1.00000E+00 0.00000E+00 6.06133E-03-1.12249E-02 3.72457E+01 6.89751E+01 6.06133E-03-1.12249E-02 3.03066E-03



                             - - - CURRENTS AND LOCATION - - -

                                 DISTANCES IN WAVELENGTHS


  SEG.  TAG    COORD. OF SEG. CENTER     SEG.            - - - CURRENT (AMPS) - - -
  NO.   NO.     X        Y        Z      LENGTH     REAL        IMAG.       MAG.        PHASE
     1    1   0.0536   0.0000   3.6627  0.02742   5.8741E-03 -1.1490E-02  1.2905E-02  -62.922
     2    1   0.0262   0.0000   3.6627  0.02742   6.0137E-03 -1.1478E-02  1.2958E-02  -62.349
     3  999   0.0000   0.0000   3.6627  0.02501   6.0613E-03 -1.1225E-02  1.2757E-02  -61.632
     4    1  -0.0262   0.0000   3.6627  0.02742   6.0137E-03 -1.1478E-02  1.2958E-02  -62.349
     5    1  -0.0536   0.0000   3.6627  0.02742   5.8741E-03 -1.1490E-02  1.2905E-02  -62.922
     6    3   0.0673   0.0000   3.6753  0.02518  -7.6662E-03  1.2438E-02  1.4610E-02  121.649
     7    3   0.0673   0.0000   3.7005  0.02518  -7.2590E-03  1.1860E-02  1.3905E-02  121.469
     8    3   0.0673   0.0000   3.7257  0.02518  -6.6590E-03  1.0981E-02  1.2843E-02  121.232
     9    3   0.0673   0.0000   3.7509  0.02518  -5.8910E-03  9.8302E-03  1.1460E-02  120.933
    10    3   0.0673   0.0000   3.7760  0.02518  -4.9755E-03  8.4342E-03  9.7924E-03  120.537
    11    3   0.0673   0.0000   3.8012  0.02518  -3.9358E-03  6.8277E-03  7.8809E-03  119.961
    12    3   0.0673   0.0000   3.8264  0.02518  -2.7980E-03  5.0505E-03  5.7738E-03  118.987
    13    3   0.0673   0.0000   3.8516  0.02518  -1.5906E-03  3.1465E-03  3.5257E-03  116.818
    14    3   0.0673   0.0000   3.8768  0.02518  -3.4371E-04  1.1629E-03  1.2126E-03  106.466
    15    3   0.0673   0.0000   3.9019  0.02518   9.1168E-04 -8.5121E-04  1.2473E-03  -43.035
    16    3   0.0673   0.0000   3.9271  0.02518   2.1444E-03 -2.8460E-03  3.5634E-03  -53.003
    17    3   0.0673   0.0000   3.9523  0.02518   3.3238E-03 -4.7722E-03  5.8156E-03  -55.143
    18    3   0.0673   0.0000   3.9775  0.02518   4.4209E-03 -6.5826E-03  7.9294E-03  -56.114
    19    3   0.0673   0.0000   4.0027  0.02518   5.4089E-03 -8.2334E-03  9.8511E-03  -56.697
    20    3   0.0673   0.0000   4.0278  0.02518   6.2638E-03 -9.6849E-03  1.1534E-02  -57.107
    21    3   0.0673   0.0000   4.0530  0.02518   6.9656E-03 -1.0904E-02  1.2939E-02  -57.428
    22    3   0.0673   0.0000   4.0782  0.02518   7.4989E-03 -1.1864E-02  1.4035E-02  -57.703
    23    3  -0.0673   0.0000   3.6753  0.02518   7.6662E-03 -1.2438E-02  1.4610E-02  -58.351
    24    3  -0.0673   0.0000   3.7005  0.02518   7.2590E-03 -1.1860E-02  1.3905E-02  -58.531
    25    3  -0.0673   0.0000   3.7257  0.02518   6.6590E-03 -1.0981E-02  1.2843E-02  -58.768
    26    3  -0.0673   0.0000   3.7509  0.02518   5.8910E-03 -9.8302E-03  1.1460E-02  -59.067
    27    3  -0.0673   0.0000   3.7760  0.02518   4.9755E-03 -8.4342E-03  9.7924E-03  -59.463
    28    3  -0.0673   0.0000   3.8012  0.02518   3.9358E-03 -6.8277E-03  7.8809E-03  -60.039
    29    3  -0.0673   0.0000   3.8264  0.02518   2.7980E-03 -5.0505E-03  5.7738E-03  -61.013
    30    3  -0.0673   0.0000   3.8516  0.02518   1.5906E-03 -3.1465E-03  3.5257E-03  -63.182
    31    3  -0.0673   0.0000   3.8768  0.02518   3.4371E-04 -1.1629E-03  1.2126E-03  -73.534
    32    3  -0.0673   0.0000   3.9019  0.02518  -9.1168E-04  8.5121E-04  1.2473E-03  136.965
    33    3  -0.0673   0.0000   3.9271  0.02518  -2.1444E-03  2.8460E-03  3.5634E-03  126.997
    34    3  -0.0673   0.0000   3.9523  0.02518  -3.3238E-03  4.7722E-03  5.8156E-03  124.857
    35    3  -0.0673   0.0000   3.9775  0.02518  -4.4209E-03  6.5826E-03  7.9294E-03  123.886
    36    3  -0.0673   0.0000   4.0027  0.02518  -5.4089E-03  8.2334E-03  9.8511E-03  123.303
    37    3  -0.0673   0.0000   4.0278  0.02518  -6.2638E-03  9.6849E-03  1.1534E-02  122.893
    38    3  -0.0673   0.0000   4.0530  0.02518  -6.9656E-03  1.0904E-02  1.2939E-02  122.572
    39    3  -0.0673   0.0000   4.0782  0.02518  -7.4989E-03  1.1864E-02  1.4035E-02  122.297
    40    2  -0.0673   0.0000   3.6194  0.02886   2.2664E-03 -1.5895E-03  2.7683E-03  -35.044
    41    2  -0.0673   0.0000   3.6483  0.02886   2.0849E-03 -1.3242E-03  2.4699E-03  -32.420
    42    2   0.0673   0.0000   3.6194  0.02886  -2.2664E-03  1.5895E-03  2.7683E-03  144.956
    43    2   0.0673   0.0000   3.6483  0.02886  -2.0849E-03  1.3242E-03  2.4699E-03  147.580
    44    2  -0.0539   0.0000   3.6050  0.02694  -2.3909E-03  1.8055E-03  2.9960E-03  142.941
    45    2  -0.0269   0.0000   3.6050  0.02694  -2.4631E-03  1.9364E-03  3.1331E-03  141.827
    46    2   0.0000   0.0000   3.6050  0.02694  -2.4873E-03  1.9813E-03  3.1799E-03  141.461
    47    2   0.0269   0.0000   3.6050  0.02694  -2.4631E-03  1.9364E-03  3.1331E-03  141.827
    48    2   0.0539   0.0000   3.6050  0.02694  -2.3909E-03  1.8055E-03  2.9960E-03  142.941
    49    2  -0.0539   0.0000   4.0908  0.02694  -7.8722E-03  1.2574E-02  1.4835E-02  122.049
    50    2  -0.0269   0.0000   4.0908  0.02694  -8.1098E-03  1.3027E-02  1.5345E-02  121.904
    51    2   0.0000   0.0000   4.0908  0.02694  -8.1905E-03  1.3180E-02  1.5517E-02  121.859
    52    2   0.0269   0.0000   4.0908  0.02694  -8.1098E-03  1.3027E-02  1.5345E-02  121.904
    53    2   0.0539   0.0000   4.0908  0.02694  -7.8722E-03  1.2574E-02  1.4835E-02  122.049



                                        - - - POWER BUDGET - - -

                                           INPUT POWER   = 3.0307E-03 WATTS
                                           RADIATED POWER= 3.0070E-03 WATTS
                                           STRUCTURE LOSS= 2.3641E-05 WATTS
                                           NETWORK LOSS  = 0.0000E+00 WATTS
                                           EFFICIENCY    =  99.22 PERCENT



                                                - - - RADIATION PATTERNS - - -

  - - ANGLES - -           - POWER GAINS -       - - - POLARIZATION - - -    - - - E(THETA) - - -    - - - E(PHI) - - -
  THETA     PHI        VERT.   HOR.    TOTAL      AXIAL     TILT   SENSE     MAGNITUDE    PHASE      MAGNITUDE    PHASE 
 DEGREES  DEGREES       DB      DB      DB        RATIO     DEG.              VOLTS/M    DEGREES      VOLTS/M    DEGREES
   85.00    90.00    -179.41    9.64    9.64    0.00000   -90.00  LINEAR    4.56417E-10    63.22    1.29317E+00   -57.00






 ***** DATA CARD NO.  6   EN   0     1     1  1000  8.50000E+01  9.00000E+01  0.00000E+00  0.00000E+00  0.00000E+00  0.00000E+00

 RUN TIME =     0.078
