1



                                 *********************************************

                                    NUMERICAL ELECTROMAGNETICS CODE (NEC-2D)

                                 *********************************************




                                     - - - - COMMENTS - - - -


                          No comments specified                                                      
                                                                                                     




                                 - - - STRUCTURE SPECIFICATION - - -

                                     COORDINATES MUST BE INPUT IN
                                     METERS OR BE SCALED TO METERS
                                     BEFORE STRUCTURE INPUT IS ENDED


  WIRE                                                                               NO. OF    FIRST  LAST     TAG
  NO.        X1         Y1         Z1          X2         Y2         Z2      RADIUS   SEG.     SEG.   SEG.     NO.
     1    0.39500    0.29200    0.00000     0.03000    0.29200    0.00000    0.00539      7        1     7       1
     2    0.03000    0.29200    0.00000    -0.02200    0.29200    0.00000    0.00539      1        8     8     999
     3   -0.02200    0.29200    0.00000    -0.39500    0.29200    0.00000    0.00539      7        9    15       1
     4   -0.39500    0.16200    0.00000    -0.39500    0.29200    0.00000    0.00539      3       16    18       2
     5    0.39500    0.16200    0.00000     0.39500    0.29200    0.00000    0.00539      3       19    21       3
     6    0.39500    0.00000    0.00000    -0.39500    0.00000    0.00000    0.00539     16       22    37       4
     7   -0.39500    0.00000    0.00000    -0.39500    0.12500    0.00000    0.00539      3       38    40       5
     8    0.39500    0.00000    0.00000     0.39500    0.12500    0.00000    0.00539      3       41    43       6
      THE STRUCTURE HAS BEEN MOVED, MOVE DATA CARD IS -
        0    0   0.00000   0.00000   0.00000   0.00000   0.00000   8.00000   0.00000

   GROUND PLANE SPECIFIED.

   WHERE WIRE ENDS TOUCH GROUND, CURRENT WILL BE INTERPOLATED TO IMAGE IN GROUND PLANE.


   TOTAL SEGMENTS USED=   43     NO. SEG. IN A SYMMETRIC CELL=   43     SYMMETRY FLAG=  0


         - MULTIPLE WIRE JUNCTIONS -
 JUNCTION    SEGMENTS  (- FOR END 1, + FOR END 2)
  NONE




                                 - - - - SEGMENTATION DATA - - - -

                                        COORDINATES IN METERS

                         I+ AND I- INDICATE THE SEGMENTS BEFORE AND AFTER I


  SEG.   COORDINATES OF SEG. CENTER     SEG.     ORIENTATION ANGLES    WIRE    CONNECTION DATA   TAG
  NO.       X         Y         Z       LENGTH     ALPHA     BETA      RADIUS    I-   I    I+    NO.
     1   0.36893   0.29200   8.00000   0.05214    0.00000 180.00000   0.00539    21    1    2      1
     2   0.31679   0.29200   8.00000   0.05214    0.00000 180.00000   0.00539     1    2    3      1
     3   0.26464   0.29200   8.00000   0.05214    0.00000 180.00000   0.00539     2    3    4      1
     4   0.21250   0.29200   8.00000   0.05214    0.00000 180.00000   0.00539     3    4    5      1
     5   0.16036   0.29200   8.00000   0.05214    0.00000 180.00000   0.00539     4    5    6      1
     6   0.10821   0.29200   8.00000   0.05214    0.00000 180.00000   0.00539     5    6    7      1
     7   0.05607   0.29200   8.00000   0.05214    0.00000 180.00000   0.00539     6    7    8      1
     8   0.00400   0.29200   8.00000   0.05200    0.00000 180.00000   0.00539     7    8    9    999
     9  -0.04864   0.29200   8.00000   0.05329    0.00000 180.00000   0.00539     8    9   10      1
    10  -0.10193   0.29200   8.00000   0.05329    0.00000 180.00000   0.00539     9   10   11      1
    11  -0.15521   0.29200   8.00000   0.05329    0.00000 180.00000   0.00539    10   11   12      1
    12  -0.20850   0.29200   8.00000   0.05329    0.00000 180.00000   0.00539    11   12   13      1
    13  -0.26179   0.29200   8.00000   0.05329    0.00000 180.00000   0.00539    12   13   14      1
    14  -0.31507   0.29200   8.00000   0.05329    0.00000 180.00000   0.00539    13   14   15      1
    15  -0.36836   0.29200   8.00000   0.05329    0.00000 180.00000   0.00539    14   15  -18      1
    16  -0.39500   0.18367   8.00000   0.04333    0.00000  90.00000   0.00539     0   16   17      2
    17  -0.39500   0.22700   8.00000   0.04333    0.00000  90.00000   0.00539    16   17   18      2
    18  -0.39500   0.27033   8.00000   0.04333    0.00000  90.00000   0.00539    17   18  -15      2
    19   0.39500   0.18367   8.00000   0.04333    0.00000  90.00000   0.00539     0   19   20      3
    20   0.39500   0.22700   8.00000   0.04333    0.00000  90.00000   0.00539    19   20   21      3
    21   0.39500   0.27033   8.00000   0.04333    0.00000  90.00000   0.00539    20   21    1      3
    22   0.37031   0.00000   8.00000   0.04938    0.00000 180.00000   0.00539   -41   22   23      4
    23   0.32094   0.00000   8.00000   0.04938    0.00000 180.00000   0.00539    22   23   24      4
    24   0.27156   0.00000   8.00000   0.04938    0.00000 180.00000   0.00539    23   24   25      4
    25   0.22219   0.00000   8.00000   0.04938    0.00000 180.00000   0.00539    24   25   26      4
    26   0.17281   0.00000   8.00000   0.04938    0.00000 180.00000   0.00539    25   26   27      4
    27   0.12344   0.00000   8.00000   0.04938    0.00000 180.00000   0.00539    26   27   28      4
    28   0.07406   0.00000   8.00000   0.04938    0.00000 180.00000   0.00539    27   28   29      4
    29   0.02469   0.00000   8.00000   0.04938    0.00000 180.00000   0.00539    28   29   30      4
    30  -0.02469   0.00000   8.00000   0.04938    0.00000 180.00000   0.00539    29   30   31      4
    31  -0.07406   0.00000   8.00000   0.04938    0.00000 180.00000   0.00539    30   31   32      4
    32  -0.12344   0.00000   8.00000   0.04938    0.00000 180.00000   0.00539    31   32   33      4
    33  -0.17281   0.00000   8.00000   0.04938    0.00000 180.00000   0.00539    32   33   34      4
    34  -0.22219   0.00000   8.00000   0.04938    0.00000 180.00000   0.00539    33   34   35      4
    35  -0.27156   0.00000   8.00000   0.04938    0.00000 180.00000   0.00539    34   35   36      4
    36  -0.32094   0.00000   8.00000   0.04938    0.00000 180.00000   0.00539    35   36   37      4
    37  -0.37031   0.00000   8.00000   0.04938    0.00000 180.00000   0.00539    36   37   38      4
    38  -0.39500   0.02083   8.00000   0.04167    0.00000  90.00000   0.00539    37   38   39      5
    39  -0.39500   0.06250   8.00000   0.04167    0.00000  90.00000   0.00539    38   39   40      5
    40  -0.39500   0.10417   8.00000   0.04167    0.00000  90.00000   0.00539    39   40    0      5
    41   0.39500   0.02083   8.00000   0.04167    0.00000  90.00000   0.00539   -22   41   42      6
    42   0.39500   0.06250   8.00000   0.04167    0.00000  90.00000   0.00539    41   42   43      6
    43   0.39500   0.10417   8.00000   0.04167    0.00000  90.00000   0.00539    42   43    0      6






 ***** DATA CARD NO.  1   GN   2     0     0     0  1.10000E+01  1.00000E-02  0.00000E+00  0.00000E+00  0.00000E+00  0.00000E+00
 ***** DATA CARD NO.  2   EK   0     0     0     0  0.00000E+00  0.00000E+00  0.00000E+00  0.00000E+00  0.00000E+00  0.00000E+00
 ***** DATA CARD NO.  3   LD   5     0     0     0  5.80000E+07  0.00000E+00  0.00000E+00  0.00000E+00  0.00000E+00  0.00000E+00
 ***** DATA CARD NO.  4   EX   0   999     1     0  1.00000E+00  0.00000E+00  0.00000E+00  0.00000E+00  0.00000E+00  0.00000E+00
 ***** DATA CARD NO.  5   FR   0     1     0     0  1.44200E+02  0.00000E+00  0.00000E+00  0.00000E+00  0.00000E+00  0.00000E+00
 ***** DATA CARD NO.  6   RP   0     1     1  1000  8.70000E+01  9.00000E+01  0.00000E+00  0.00000E+00  0.00000E+00  0.00000E+00




                                 - - - - - - FREQUENCY - - - - - -

                                    FREQUENCY= 1.4420E+02 MHZ
                                    WAVELENGTH= 2.0791E+00 METERS




                    APPROXIMATE INTEGRATION EMPLOYED FOR SEGMENTS MORE THAN   1.000 WAVELENGTHS APART

                    THE EXTENDED THIN WIRE KERNEL WILL BE USED



                               - - - STRUCTURE IMPEDANCE LOADING - - -


       LOCATION          RESISTANCE   INDUCTANCE  CAPACITANCE       IMPEDANCE (OHMS)     CONDUCTIVITY    TYPE
    ITAG FROM THRU          OHMS        HENRYS       FARADS        REAL      IMAGINARY    MHOS/METER

     ALL                                                                                 5.8000E+07     WIRE  



                                  - - - ANTENNA ENVIRONMENT - - -

                                        FINITE GROUND.  SOMMERFELD SOLUTION
                                        RELATIVE DIELECTRIC CONST.= 11.000
                                        CONDUCTIVITY= 1.000E-02 MHOS/METER
                                        COMPLEX DIELECTRIC CONSTANT= 1.10000E+01-1.24660E+00



                                - - - MATRIX TIMING - - -

                        FILL=    0.000 SEC.,  FACTOR=    0.000 SEC.



                                          - - - ANTENNA INPUT PARAMETERS - - -

   TAG   SEG.    VOLTAGE (VOLTS)         CURRENT (AMPS)         IMPEDANCE (OHMS)        ADMITTANCE (MHOS)      POWER
   NO.   NO.    REAL        IMAG.       REAL        IMAG.       REAL        IMAG.       REAL        IMAG.     (WATTS)
   999     8 1.00000E+00 0.00000E+00 5.04511E-03-5.98928E-03 8.22688E+01 9.76652E+01 5.04511E-03-5.98928E-03 2.52255E-03



                             - - - CURRENTS AND LOCATION - - -

                                 DISTANCES IN WAVELENGTHS


  SEG.  TAG    COORD. OF SEG. CENTER     SEG.            - - - CURRENT (AMPS) - - -
  NO.   NO.     X        Y        Z      LENGTH     REAL        IMAG.       MAG.        PHASE
     1    1   0.1774   0.1404   3.8479  0.02508   2.4134E-03 -3.9779E-03  4.6527E-03  -58.755
     2    1   0.1524   0.1404   3.8479  0.02508   3.0521E-03 -4.7981E-03  5.6865E-03  -57.539
     3    1   0.1273   0.1404   3.8479  0.02508   3.6240E-03 -5.4875E-03  6.5761E-03  -56.559
     4    1   0.1022   0.1404   3.8479  0.02508   4.1133E-03 -6.0116E-03  7.2841E-03  -55.619
     5    1   0.0771   0.1404   3.8479  0.02508   4.5077E-03 -6.3459E-03  7.7839E-03  -54.613
     6    1   0.0520   0.1404   3.8479  0.02508   4.7983E-03 -6.4696E-03  8.0548E-03  -53.437
     7    1   0.0270   0.1404   3.8479  0.02508   4.9788E-03 -6.3373E-03  8.0591E-03  -51.846
     8  999   0.0019   0.1404   3.8479  0.02501   5.0451E-03 -5.9893E-03  7.8310E-03  -49.891
     9    1  -0.0234   0.1404   3.8479  0.02563   4.9951E-03 -6.3689E-03  8.0940E-03  -51.893
    10    1  -0.0490   0.1404   3.8479  0.02563   4.8258E-03 -6.5273E-03  8.1175E-03  -53.524
    11    1  -0.0747   0.1404   3.8479  0.02563   4.5407E-03 -6.4185E-03  7.8623E-03  -54.723
    12    1  -0.1003   0.1404   3.8479  0.02563   4.1465E-03 -6.0887E-03  7.3666E-03  -55.744
    13    1  -0.1259   0.1404   3.8479  0.02563   3.6525E-03 -5.5591E-03  6.6517E-03  -56.694
    14    1  -0.1515   0.1404   3.8479  0.02563   3.0714E-03 -4.8551E-03  5.7450E-03  -57.682
    15    1  -0.1772   0.1404   3.8479  0.02563   2.4200E-03 -4.0127E-03  4.6860E-03  -58.907
    16    2  -0.1900   0.0883   3.8479  0.02084  -4.9740E-04  1.0561E-03  1.1674E-03  115.219
    17    2  -0.1900   0.1092   3.8479  0.02084  -1.1754E-03  2.2441E-03  2.5333E-03  117.645
    18    2  -0.1900   0.1300   3.8479  0.02084  -1.7818E-03  3.1531E-03  3.6217E-03  119.470
    19    3   0.1900   0.0883   3.8479  0.02084   4.9757E-04 -1.0503E-03  1.1622E-03  -64.651
    20    3   0.1900   0.1092   3.8479  0.02084   1.1758E-03 -2.2310E-03  2.5218E-03  -62.209
    21    3   0.1900   0.1300   3.8479  0.02084   1.7823E-03 -3.1340E-03  3.6053E-03  -60.373
    22    4   0.1781   0.0000   3.8479  0.02375   1.1865E-03  3.7597E-03  3.9425E-03   72.486
    23    4   0.1544   0.0000   3.8479  0.02375   1.5350E-03  4.5743E-03  4.8250E-03   71.450
    24    4   0.1306   0.0000   3.8479  0.02375   1.8447E-03  5.3272E-03  5.6376E-03   70.900
    25    4   0.1069   0.0000   3.8479  0.02375   2.1114E-03  5.9862E-03  6.3476E-03   70.572
    26    4   0.0831   0.0000   3.8479  0.02375   2.3306E-03  6.5313E-03  6.9347E-03   70.362
    27    4   0.0594   0.0000   3.8479  0.02375   2.4984E-03  6.9499E-03  7.3853E-03   70.227
    28    4   0.0356   0.0000   3.8479  0.02375   2.6120E-03  7.2334E-03  7.6905E-03   70.145
    29    4   0.0119   0.0000   3.8479  0.02375   2.6693E-03  7.3767E-03  7.8448E-03   70.107
    30    4  -0.0119   0.0000   3.8479  0.02375   2.6693E-03  7.3772E-03  7.8453E-03   70.108
    31    4  -0.0356   0.0000   3.8479  0.02375   2.6120E-03  7.2350E-03  7.6921E-03   70.150
    32    4  -0.0594   0.0000   3.8479  0.02375   2.4983E-03  6.9524E-03  7.3877E-03   70.234
    33    4  -0.0831   0.0000   3.8479  0.02375   2.3304E-03  6.5346E-03  6.9377E-03   70.372
    34    4  -0.1069   0.0000   3.8479  0.02375   2.1113E-03  5.9899E-03  6.3510E-03   70.584
    35    4  -0.1306   0.0000   3.8479  0.02375   1.8446E-03  5.3310E-03  5.6411E-03   70.914
    36    4  -0.1544   0.0000   3.8479  0.02375   1.5349E-03  4.5781E-03  4.8285E-03   71.465
    37    4  -0.1781   0.0000   3.8479  0.02375   1.1864E-03  3.7633E-03  3.9459E-03   72.502
    38    5  -0.1900   0.0100   3.8479  0.02004   8.3409E-04  2.9756E-03  3.0903E-03   74.341
    39    5  -0.1900   0.0301   3.8479  0.02004   5.1086E-04  2.1272E-03  2.1876E-03   76.495
    40    5  -0.1900   0.0501   3.8479  0.02004   1.8999E-04  1.0086E-03  1.0264E-03   79.333
    41    6   0.1900   0.0100   3.8479  0.02004  -8.3413E-04 -2.9723E-03  3.0871E-03 -105.676
    42    6   0.1900   0.0301   3.8479  0.02004  -5.1087E-04 -2.1244E-03  2.1849E-03 -103.522
    43    6   0.1900   0.0501   3.8479  0.02004  -1.8998E-04 -1.0070E-03  1.0248E-03 -100.684



                                        - - - POWER BUDGET - - -

                                           INPUT POWER   = 2.5226E-03 WATTS
                                           RADIATED POWER= 2.5191E-03 WATTS
                                           STRUCTURE LOSS= 3.4978E-06 WATTS
                                           NETWORK LOSS  = 0.0000E+00 WATTS
                                           EFFICIENCY    =  99.86 PERCENT



                                                - - - RADIATION PATTERNS - - -

  - - ANGLES - -           - POWER GAINS -       - - - POLARIZATION - - -    - - - E(THETA) - - -    - - - E(PHI) - - -
  THETA     PHI        VERT.   HOR.    TOTAL      AXIAL     TILT   SENSE     MAGNITUDE    PHASE      MAGNITUDE    PHASE 
 DEGREES  DEGREES       DB      DB      DB        RATIO     DEG.              VOLTS/M    DEGREES      VOLTS/M    DEGREES
   87.00    90.00     -97.09   11.23   11.23    0.00000    90.00  LINEAR    5.43806E-06    65.44    1.41633E+00    30.74






 ***** DATA CARD NO.  7   EN   0     1     1  1000  8.70000E+01  9.00000E+01  0.00000E+00  0.00000E+00  0.00000E+00  0.00000E+00

 RUN TIME =     0.125
