1



                                 *********************************************

                                    NUMERICAL ELECTROMAGNETICS CODE (NEC-2D)

                                 *********************************************




                                     - - - - COMMENTS - - - -


                          No comments specified                                                      
                                                                                                     




                                 - - - STRUCTURE SPECIFICATION - - -

                                     COORDINATES MUST BE INPUT IN
                                     METERS OR BE SCALED TO METERS
                                     BEFORE STRUCTURE INPUT IS ENDED


  WIRE                                                                               NO. OF    FIRST  LAST     TAG
  NO.        X1         Y1         Z1          X2         Y2         Z2      RADIUS   SEG.     SEG.   SEG.     NO.
     1    0.47100    0.00000    0.00000    -0.47100    0.00000    0.00000    0.00455     19        1    19       1
     2    0.55400    0.22100    0.00000     0.03400    0.22100    0.00000    0.00455     10       20    29       2
     3    0.03400    0.22100    0.00000    -0.01800    0.22100    0.00000    0.00455      1       30    30     999
     4   -0.01800    0.22100    0.00000    -0.55400    0.22100    0.00000    0.00455     10       31    40       2
     5    0.40000    0.35000    0.00000    -0.40000    0.35000    0.00000    0.00455     16       41    56       3
      THE STRUCTURE HAS BEEN MOVED, MOVE DATA CARD IS -
        0    0   0.00000   0.00000   0.00000   0.00000   0.00000   8.00000   0.00000

   GROUND PLANE SPECIFIED.

   WHERE WIRE ENDS TOUCH GROUND, CURRENT WILL BE INTERPOLATED TO IMAGE IN GROUND PLANE.


   TOTAL SEGMENTS USED=   56     NO. SEG. IN A SYMMETRIC CELL=   56     SYMMETRY FLAG=  0


         - MULTIPLE WIRE JUNCTIONS -
 JUNCTION    SEGMENTS  (- FOR END 1, + FOR END 2)
  NONE




                                 - - - - SEGMENTATION DATA - - - -

                                        COORDINATES IN METERS

                         I+ AND I- INDICATE THE SEGMENTS BEFORE AND AFTER I


  SEG.   COORDINATES OF SEG. CENTER     SEG.     ORIENTATION ANGLES    WIRE    CONNECTION DATA   TAG
  NO.       X         Y         Z       LENGTH     ALPHA     BETA      RADIUS    I-   I    I+    NO.
     1   0.44621   0.00000   8.00000   0.04958    0.00000 180.00000   0.00455     0    1    2      1
     2   0.39663   0.00000   8.00000   0.04958    0.00000 180.00000   0.00455     1    2    3      1
     3   0.34705   0.00000   8.00000   0.04958    0.00000 180.00000   0.00455     2    3    4      1
     4   0.29747   0.00000   8.00000   0.04958    0.00000 180.00000   0.00455     3    4    5      1
     5   0.24789   0.00000   8.00000   0.04958    0.00000 180.00000   0.00455     4    5    6      1
     6   0.19832   0.00000   8.00000   0.04958    0.00000 180.00000   0.00455     5    6    7      1
     7   0.14874   0.00000   8.00000   0.04958    0.00000 180.00000   0.00455     6    7    8      1
     8   0.09916   0.00000   8.00000   0.04958    0.00000 180.00000   0.00455     7    8    9      1
     9   0.04958   0.00000   8.00000   0.04958    0.00000 180.00000   0.00455     8    9   10      1
    10   0.00000   0.00000   8.00000   0.04958    0.00000 180.00000   0.00455     9   10   11      1
    11  -0.04958   0.00000   8.00000   0.04958    0.00000 180.00000   0.00455    10   11   12      1
    12  -0.09916   0.00000   8.00000   0.04958    0.00000 180.00000   0.00455    11   12   13      1
    13  -0.14874   0.00000   8.00000   0.04958    0.00000 180.00000   0.00455    12   13   14      1
    14  -0.19832   0.00000   8.00000   0.04958    0.00000 180.00000   0.00455    13   14   15      1
    15  -0.24789   0.00000   8.00000   0.04958    0.00000 180.00000   0.00455    14   15   16      1
    16  -0.29747   0.00000   8.00000   0.04958    0.00000 180.00000   0.00455    15   16   17      1
    17  -0.34705   0.00000   8.00000   0.04958    0.00000 180.00000   0.00455    16   17   18      1
    18  -0.39663   0.00000   8.00000   0.04958    0.00000 180.00000   0.00455    17   18   19      1
    19  -0.44621   0.00000   8.00000   0.04958    0.00000 180.00000   0.00455    18   19    0      1
    20   0.52800   0.22100   8.00000   0.05200    0.00000 180.00000   0.00455     0   20   21      2
    21   0.47600   0.22100   8.00000   0.05200    0.00000 180.00000   0.00455    20   21   22      2
    22   0.42400   0.22100   8.00000   0.05200    0.00000 180.00000   0.00455    21   22   23      2
    23   0.37200   0.22100   8.00000   0.05200    0.00000 180.00000   0.00455    22   23   24      2
    24   0.32000   0.22100   8.00000   0.05200    0.00000 180.00000   0.00455    23   24   25      2
    25   0.26800   0.22100   8.00000   0.05200    0.00000 180.00000   0.00455    24   25   26      2
    26   0.21600   0.22100   8.00000   0.05200    0.00000 180.00000   0.00455    25   26   27      2
    27   0.16400   0.22100   8.00000   0.05200    0.00000 180.00000   0.00455    26   27   28      2
    28   0.11200   0.22100   8.00000   0.05200    0.00000 180.00000   0.00455    27   28   29      2
    29   0.06000   0.22100   8.00000   0.05200    0.00000 180.00000   0.00455    28   29   30      2
    30   0.00800   0.22100   8.00000   0.05200    0.00000 180.00000   0.00455    29   30   31    999
    31  -0.04480   0.22100   8.00000   0.05360    0.00000 180.00000   0.00455    30   31   32      2
    32  -0.09840   0.22100   8.00000   0.05360    0.00000 180.00000   0.00455    31   32   33      2
    33  -0.15200   0.22100   8.00000   0.05360    0.00000 180.00000   0.00455    32   33   34      2
    34  -0.20560   0.22100   8.00000   0.05360    0.00000 180.00000   0.00455    33   34   35      2
    35  -0.25920   0.22100   8.00000   0.05360    0.00000 180.00000   0.00455    34   35   36      2
    36  -0.31280   0.22100   8.00000   0.05360    0.00000 180.00000   0.00455    35   36   37      2
    37  -0.36640   0.22100   8.00000   0.05360    0.00000 180.00000   0.00455    36   37   38      2
    38  -0.42000   0.22100   8.00000   0.05360    0.00000 180.00000   0.00455    37   38   39      2
    39  -0.47360   0.22100   8.00000   0.05360    0.00000 180.00000   0.00455    38   39   40      2
    40  -0.52720   0.22100   8.00000   0.05360    0.00000 180.00000   0.00455    39   40    0      2
    41   0.37500   0.35000   8.00000   0.05000    0.00000 180.00000   0.00455     0   41   42      3
    42   0.32500   0.35000   8.00000   0.05000    0.00000 180.00000   0.00455    41   42   43      3
    43   0.27500   0.35000   8.00000   0.05000    0.00000 180.00000   0.00455    42   43   44      3
    44   0.22500   0.35000   8.00000   0.05000    0.00000 180.00000   0.00455    43   44   45      3
    45   0.17500   0.35000   8.00000   0.05000    0.00000 180.00000   0.00455    44   45   46      3
    46   0.12500   0.35000   8.00000   0.05000    0.00000 180.00000   0.00455    45   46   47      3
    47   0.07500   0.35000   8.00000   0.05000    0.00000 180.00000   0.00455    46   47   48      3
    48   0.02500   0.35000   8.00000   0.05000    0.00000 180.00000   0.00455    47   48   49      3
    49  -0.02500   0.35000   8.00000   0.05000    0.00000 180.00000   0.00455    48   49   50      3
    50  -0.07500   0.35000   8.00000   0.05000    0.00000 180.00000   0.00455    49   50   51      3
    51  -0.12500   0.35000   8.00000   0.05000    0.00000 180.00000   0.00455    50   51   52      3
    52  -0.17500   0.35000   8.00000   0.05000    0.00000 180.00000   0.00455    51   52   53      3
    53  -0.22500   0.35000   8.00000   0.05000    0.00000 180.00000   0.00455    52   53   54      3
    54  -0.27500   0.35000   8.00000   0.05000    0.00000 180.00000   0.00455    53   54   55      3
    55  -0.32500   0.35000   8.00000   0.05000    0.00000 180.00000   0.00455    54   55   56      3
    56  -0.37500   0.35000   8.00000   0.05000    0.00000 180.00000   0.00455    55   56    0      3






 ***** DATA CARD NO.  1   GN   2     0     0     0  1.10000E+01  1.00000E-02  0.00000E+00  0.00000E+00  0.00000E+00  0.00000E+00
 ***** DATA CARD NO.  2   EK   0     0     0     0  0.00000E+00  0.00000E+00  0.00000E+00  0.00000E+00  0.00000E+00  0.00000E+00
 ***** DATA CARD NO.  3   LD   5     0     0     0  5.80000E+07  0.00000E+00  0.00000E+00  0.00000E+00  0.00000E+00  0.00000E+00
 ***** DATA CARD NO.  4   EX   0   999     1     0  1.00000E+00  0.00000E+00  0.00000E+00  0.00000E+00  0.00000E+00  0.00000E+00
 ***** DATA CARD NO.  5   FR   0     1     0     0  1.44200E+02  0.00000E+00  0.00000E+00  0.00000E+00  0.00000E+00  0.00000E+00
 ***** DATA CARD NO.  6   RP   0     1     1  1000  8.70000E+01  9.00000E+01  0.00000E+00  0.00000E+00  0.00000E+00  0.00000E+00




                                 - - - - - - FREQUENCY - - - - - -

                                    FREQUENCY= 1.4420E+02 MHZ
                                    WAVELENGTH= 2.0791E+00 METERS




                    APPROXIMATE INTEGRATION EMPLOYED FOR SEGMENTS MORE THAN   1.000 WAVELENGTHS APART

                    THE EXTENDED THIN WIRE KERNEL WILL BE USED



                               - - - STRUCTURE IMPEDANCE LOADING - - -


       LOCATION          RESISTANCE   INDUCTANCE  CAPACITANCE       IMPEDANCE (OHMS)     CONDUCTIVITY    TYPE
    ITAG FROM THRU          OHMS        HENRYS       FARADS        REAL      IMAGINARY    MHOS/METER

     ALL                                                                                 5.8000E+07     WIRE  



                                  - - - ANTENNA ENVIRONMENT - - -

                                        FINITE GROUND.  SOMMERFELD SOLUTION
                                        RELATIVE DIELECTRIC CONST.= 11.000
                                        CONDUCTIVITY= 1.000E-02 MHOS/METER
                                        COMPLEX DIELECTRIC CONSTANT= 1.10000E+01-1.24660E+00



                                - - - MATRIX TIMING - - -

                        FILL=    0.016 SEC.,  FACTOR=    0.000 SEC.



                                          - - - ANTENNA INPUT PARAMETERS - - -

   TAG   SEG.    VOLTAGE (VOLTS)         CURRENT (AMPS)         IMPEDANCE (OHMS)        ADMITTANCE (MHOS)      POWER
   NO.   NO.    REAL        IMAG.       REAL        IMAG.       REAL        IMAG.       REAL        IMAG.     (WATTS)
   999    30 1.00000E+00 0.00000E+00 5.90203E-03-1.17485E-02 3.41432E+01 6.79650E+01 5.90203E-03-1.17485E-02 2.95101E-03



                             - - - CURRENTS AND LOCATION - - -

                                 DISTANCES IN WAVELENGTHS


  SEG.  TAG    COORD. OF SEG. CENTER     SEG.            - - - CURRENT (AMPS) - - -
  NO.   NO.     X        Y        Z      LENGTH     REAL        IMAG.       MAG.        PHASE
     1    1   0.2146   0.0000   3.8479  0.02385  -1.2529E-03  1.4534E-03  1.9188E-03  130.763
     2    1   0.1908   0.0000   3.8479  0.02385  -2.9481E-03  3.4306E-03  4.5233E-03  130.674
     3    1   0.1669   0.0000   3.8479  0.02385  -4.3857E-03  5.1162E-03  6.7386E-03  130.604
     4    1   0.1431   0.0000   3.8479  0.02385  -5.6640E-03  6.6193E-03  8.7118E-03  130.553
     5    1   0.1192   0.0000   3.8479  0.02385  -6.7782E-03  7.9312E-03  1.0433E-02  130.518
     6    1   0.0954   0.0000   3.8479  0.02385  -7.7156E-03  9.0351E-03  1.1881E-02  130.496
     7    1   0.0715   0.0000   3.8479  0.02385  -8.4621E-03  9.9134E-03  1.3034E-02  130.484
     8    1   0.0477   0.0000   3.8479  0.02385  -9.0051E-03  1.0552E-02  1.3872E-02  130.479
     9    1   0.0238   0.0000   3.8479  0.02385  -9.3350E-03  1.0939E-02  1.4381E-02  130.476
    10    1   0.0000   0.0000   3.8479  0.02385  -9.4457E-03  1.1070E-02  1.4552E-02  130.473
    11    1  -0.0238   0.0000   3.8479  0.02385  -9.3351E-03  1.0942E-02  1.4383E-02  130.470
    12    1  -0.0477   0.0000   3.8479  0.02385  -9.0054E-03  1.0556E-02  1.3876E-02  130.467
    13    1  -0.0715   0.0000   3.8479  0.02385  -8.4625E-03  9.9193E-03  1.3039E-02  130.469
    14    1  -0.0954   0.0000   3.8479  0.02385  -7.7161E-03  9.0415E-03  1.1886E-02  130.478
    15    1  -0.1192   0.0000   3.8479  0.02385  -6.7787E-03  7.9374E-03  1.0438E-02  130.498
    16    1  -0.1431   0.0000   3.8479  0.02385  -5.6644E-03  6.6248E-03  8.7163E-03  130.532
    17    1  -0.1669   0.0000   3.8479  0.02385  -4.3861E-03  5.1205E-03  6.7422E-03  130.583
    18    1  -0.1908   0.0000   3.8479  0.02385  -2.9484E-03  3.4335E-03  4.5257E-03  130.653
    19    1  -0.2146   0.0000   3.8479  0.02385  -1.2530E-03  1.4546E-03  1.9199E-03  130.743
    20    2   0.2540   0.1063   3.8479  0.02501   5.6695E-04 -1.5358E-03  1.6371E-03  -69.738
    21    2   0.2289   0.1063   3.8479  0.02501   1.3920E-03 -3.6594E-03  3.9152E-03  -69.174
    22    2   0.2039   0.1063   3.8479  0.02501   2.1569E-03 -5.4907E-03  5.8992E-03  -68.554
    23    2   0.1789   0.1063   3.8479  0.02501   2.8976E-03 -7.1382E-03  7.7039E-03  -67.907
    24    2   0.1539   0.1063   3.8479  0.02501   3.5989E-03 -8.5869E-03  9.3105E-03  -67.261
    25    2   0.1289   0.1063   3.8479  0.02501   4.2389E-03 -9.8138E-03  1.0690E-02  -66.639
    26    2   0.1039   0.1063   3.8479  0.02501   4.7965E-03 -1.0794E-02  1.1811E-02  -66.041
    27    2   0.0789   0.1063   3.8479  0.02501   5.2537E-03 -1.1502E-02  1.2645E-02  -65.450
    28    2   0.0539   0.1063   3.8479  0.02501   5.5966E-03 -1.1913E-02  1.3162E-02  -64.836
    29    2   0.0289   0.1063   3.8479  0.02501   5.8149E-03 -1.1981E-02  1.3318E-02  -64.111
    30  999   0.0038   0.1063   3.8479  0.02501   5.9020E-03 -1.1748E-02  1.3148E-02  -63.327
    31    2  -0.0215   0.1063   3.8479  0.02578   5.8538E-03 -1.2075E-02  1.3419E-02  -64.136
    32    2  -0.0473   0.1063   3.8479  0.02578   5.6655E-03 -1.2085E-02  1.3347E-02  -64.882
    33    2  -0.0731   0.1063   3.8479  0.02578   5.3426E-03 -1.1729E-02  1.2888E-02  -65.510
    34    2  -0.0989   0.1063   3.8479  0.02578   4.8954E-03 -1.1053E-02  1.2088E-02  -66.110
    35    2  -0.1247   0.1063   3.8479  0.02578   4.3384E-03 -1.0082E-02  1.0976E-02  -66.717
    36    2  -0.1505   0.1063   3.8479  0.02578   3.6903E-03 -8.8432E-03  9.5823E-03  -67.349
    37    2  -0.1762   0.1063   3.8479  0.02578   2.9740E-03 -7.3638E-03  7.9416E-03  -68.008
    38    2  -0.2020   0.1063   3.8479  0.02578   2.2135E-03 -5.6694E-03  6.0861E-03  -68.673
    39    2  -0.2278   0.1063   3.8479  0.02578   1.4267E-03 -3.7777E-03  4.0382E-03  -69.311
    40    2  -0.2536   0.1063   3.8479  0.02578   5.7883E-04 -1.5810E-03  1.6836E-03  -69.891
    41    3   0.1804   0.1683   3.8479  0.02405  -2.4401E-04 -3.0195E-04  3.8822E-04 -128.941
    42    3   0.1563   0.1683   3.8479  0.02405  -5.6762E-04 -6.9360E-04  8.9626E-04 -129.296
    43    3   0.1323   0.1683   3.8479  0.02405  -8.3169E-04 -1.0123E-03  1.3101E-03 -129.406
    44    3   0.1082   0.1683   3.8479  0.02405  -1.0551E-03 -1.2874E-03  1.6645E-03 -129.337
    45    3   0.0842   0.1683   3.8479  0.02405  -1.2372E-03 -1.5195E-03  1.9595E-03 -129.154
    46    3   0.0601   0.1683   3.8479  0.02405  -1.3761E-03 -1.7045E-03  2.1906E-03 -128.917
    47    3   0.0361   0.1683   3.8479  0.02405  -1.4699E-03 -1.8351E-03  2.3512E-03 -128.695
    48    3   0.0120   0.1683   3.8479  0.02405  -1.5172E-03 -1.9022E-03  2.4332E-03 -128.577
    49    3  -0.0120   0.1683   3.8479  0.02405  -1.5173E-03 -1.8987E-03  2.4305E-03 -128.629
    50    3  -0.0361   0.1683   3.8479  0.02405  -1.4701E-03 -1.8260E-03  2.3442E-03 -128.836
    51    3  -0.0601   0.1683   3.8479  0.02405  -1.3763E-03 -1.6925E-03  2.1815E-03 -129.117
    52    3  -0.0842   0.1683   3.8479  0.02405  -1.2375E-03 -1.5071E-03  1.9500E-03 -129.390
    53    3  -0.1082   0.1683   3.8479  0.02405  -1.0554E-03 -1.2761E-03  1.6560E-03 -129.593
    54    3  -0.1323   0.1683   3.8479  0.02405  -8.3195E-04 -1.0031E-03  1.3032E-03 -129.671
    55    3  -0.1563   0.1683   3.8479  0.02405  -5.6784E-04 -6.8732E-04  8.9154E-04 -129.562
    56    3  -0.1804   0.1683   3.8479  0.02405  -2.4412E-04 -2.9929E-04  3.8622E-04 -129.203



                                        - - - POWER BUDGET - - -

                                           INPUT POWER   = 2.9510E-03 WATTS
                                           RADIATED POWER= 2.9389E-03 WATTS
                                           STRUCTURE LOSS= 1.2153E-05 WATTS
                                           NETWORK LOSS  = 0.0000E+00 WATTS
                                           EFFICIENCY    =  99.59 PERCENT



                                                - - - RADIATION PATTERNS - - -

  - - ANGLES - -           - POWER GAINS -       - - - POLARIZATION - - -    - - - E(THETA) - - -    - - - E(PHI) - - -
  THETA     PHI        VERT.   HOR.    TOTAL      AXIAL     TILT   SENSE     MAGNITUDE    PHASE      MAGNITUDE    PHASE 
 DEGREES  DEGREES       DB      DB      DB        RATIO     DEG.              VOLTS/M    DEGREES      VOLTS/M    DEGREES
   87.00    90.00    -999.99    3.57    3.57    0.00000    90.00  LINEAR    5.42329E-14   -45.38    6.34629E-01    14.50






 ***** DATA CARD NO.  7   EN   0     1     1  1000  8.70000E+01  9.00000E+01  0.00000E+00  0.00000E+00  0.00000E+00  0.00000E+00

 RUN TIME =     0.109
