1



                                 *********************************************

                                    NUMERICAL ELECTROMAGNETICS CODE (NEC-2D)

                                 *********************************************




                                     - - - - COMMENTS - - - -


                          No comments specified                                                      
                                                                                                     




                                 - - - STRUCTURE SPECIFICATION - - -

                                     COORDINATES MUST BE INPUT IN
                                     METERS OR BE SCALED TO METERS
                                     BEFORE STRUCTURE INPUT IS ENDED


  WIRE                                                                               NO. OF    FIRST  LAST     TAG
  NO.        X1         Y1         Z1          X2         Y2         Z2      RADIUS   SEG.     SEG.   SEG.     NO.
     1    0.49900    0.00000    0.00000    -0.49900    0.00000    0.00000    0.00407     20        1    20       1
     2    0.49700    0.30400    0.00000     0.02900    0.30400    0.00000    0.00407      9       21    29       2
     3    0.02900    0.30400    0.00000    -0.02300    0.30400    0.00000    0.00407      1       30    30     999
     4   -0.02300    0.30400    0.00000    -0.49700    0.30400    0.00000    0.00407      9       31    39       2
     5    0.44500    0.51100    0.00000    -0.44500    0.51100    0.00000    0.00407     18       40    57       3
      THE STRUCTURE HAS BEEN MOVED, MOVE DATA CARD IS -
        0    0   0.00000   0.00000   0.00000   0.00000   0.00000   8.00000   0.00000

   GROUND PLANE SPECIFIED.

   WHERE WIRE ENDS TOUCH GROUND, CURRENT WILL BE INTERPOLATED TO IMAGE IN GROUND PLANE.


   TOTAL SEGMENTS USED=   57     NO. SEG. IN A SYMMETRIC CELL=   57     SYMMETRY FLAG=  0


         - MULTIPLE WIRE JUNCTIONS -
 JUNCTION    SEGMENTS  (- FOR END 1, + FOR END 2)
  NONE




                                 - - - - SEGMENTATION DATA - - - -

                                        COORDINATES IN METERS

                         I+ AND I- INDICATE THE SEGMENTS BEFORE AND AFTER I


  SEG.   COORDINATES OF SEG. CENTER     SEG.     ORIENTATION ANGLES    WIRE    CONNECTION DATA   TAG
  NO.       X         Y         Z       LENGTH     ALPHA     BETA      RADIUS    I-   I    I+    NO.
     1   0.47405   0.00000   8.00000   0.04990    0.00000 180.00000   0.00407     0    1    2      1
     2   0.42415   0.00000   8.00000   0.04990    0.00000 180.00000   0.00407     1    2    3      1
     3   0.37425   0.00000   8.00000   0.04990    0.00000 180.00000   0.00407     2    3    4      1
     4   0.32435   0.00000   8.00000   0.04990    0.00000 180.00000   0.00407     3    4    5      1
     5   0.27445   0.00000   8.00000   0.04990    0.00000 180.00000   0.00407     4    5    6      1
     6   0.22455   0.00000   8.00000   0.04990    0.00000 180.00000   0.00407     5    6    7      1
     7   0.17465   0.00000   8.00000   0.04990    0.00000 180.00000   0.00407     6    7    8      1
     8   0.12475   0.00000   8.00000   0.04990    0.00000 180.00000   0.00407     7    8    9      1
     9   0.07485   0.00000   8.00000   0.04990    0.00000 180.00000   0.00407     8    9   10      1
    10   0.02495   0.00000   8.00000   0.04990    0.00000 180.00000   0.00407     9   10   11      1
    11  -0.02495   0.00000   8.00000   0.04990    0.00000 180.00000   0.00407    10   11   12      1
    12  -0.07485   0.00000   8.00000   0.04990    0.00000 180.00000   0.00407    11   12   13      1
    13  -0.12475   0.00000   8.00000   0.04990    0.00000 180.00000   0.00407    12   13   14      1
    14  -0.17465   0.00000   8.00000   0.04990    0.00000 180.00000   0.00407    13   14   15      1
    15  -0.22455   0.00000   8.00000   0.04990    0.00000 180.00000   0.00407    14   15   16      1
    16  -0.27445   0.00000   8.00000   0.04990    0.00000 180.00000   0.00407    15   16   17      1
    17  -0.32435   0.00000   8.00000   0.04990    0.00000 180.00000   0.00407    16   17   18      1
    18  -0.37425   0.00000   8.00000   0.04990    0.00000 180.00000   0.00407    17   18   19      1
    19  -0.42415   0.00000   8.00000   0.04990    0.00000 180.00000   0.00407    18   19   20      1
    20  -0.47405   0.00000   8.00000   0.04990    0.00000 180.00000   0.00407    19   20    0      1
    21   0.47100   0.30400   8.00000   0.05200    0.00000 180.00000   0.00407     0   21   22      2
    22   0.41900   0.30400   8.00000   0.05200    0.00000 180.00000   0.00407    21   22   23      2
    23   0.36700   0.30400   8.00000   0.05200    0.00000 180.00000   0.00407    22   23   24      2
    24   0.31500   0.30400   8.00000   0.05200    0.00000 180.00000   0.00407    23   24   25      2
    25   0.26300   0.30400   8.00000   0.05200    0.00000 180.00000   0.00407    24   25   26      2
    26   0.21100   0.30400   8.00000   0.05200    0.00000 180.00000   0.00407    25   26   27      2
    27   0.15900   0.30400   8.00000   0.05200    0.00000 180.00000   0.00407    26   27   28      2
    28   0.10700   0.30400   8.00000   0.05200    0.00000 180.00000   0.00407    27   28   29      2
    29   0.05500   0.30400   8.00000   0.05200    0.00000 180.00000   0.00407    28   29   30      2
    30   0.00300   0.30400   8.00000   0.05200    0.00000 180.00000   0.00407    29   30   31    999
    31  -0.04933   0.30400   8.00000   0.05267    0.00000 180.00000   0.00407    30   31   32      2
    32  -0.10200   0.30400   8.00000   0.05267    0.00000 180.00000   0.00407    31   32   33      2
    33  -0.15467   0.30400   8.00000   0.05267    0.00000 180.00000   0.00407    32   33   34      2
    34  -0.20733   0.30400   8.00000   0.05267    0.00000 180.00000   0.00407    33   34   35      2
    35  -0.26000   0.30400   8.00000   0.05267    0.00000 180.00000   0.00407    34   35   36      2
    36  -0.31267   0.30400   8.00000   0.05267    0.00000 180.00000   0.00407    35   36   37      2
    37  -0.36533   0.30400   8.00000   0.05267    0.00000 180.00000   0.00407    36   37   38      2
    38  -0.41800   0.30400   8.00000   0.05267    0.00000 180.00000   0.00407    37   38   39      2
    39  -0.47067   0.30400   8.00000   0.05267    0.00000 180.00000   0.00407    38   39    0      2
    40   0.42028   0.51100   8.00000   0.04944    0.00000 180.00000   0.00407     0   40   41      3
    41   0.37083   0.51100   8.00000   0.04944    0.00000 180.00000   0.00407    40   41   42      3
    42   0.32139   0.51100   8.00000   0.04944    0.00000 180.00000   0.00407    41   42   43      3
    43   0.27194   0.51100   8.00000   0.04944    0.00000 180.00000   0.00407    42   43   44      3
    44   0.22250   0.51100   8.00000   0.04944    0.00000 180.00000   0.00407    43   44   45      3
    45   0.17306   0.51100   8.00000   0.04944    0.00000 180.00000   0.00407    44   45   46      3
    46   0.12361   0.51100   8.00000   0.04944    0.00000 180.00000   0.00407    45   46   47      3
    47   0.07417   0.51100   8.00000   0.04944    0.00000 180.00000   0.00407    46   47   48      3
    48   0.02472   0.51100   8.00000   0.04944    0.00000 180.00000   0.00407    47   48   49      3
    49  -0.02472   0.51100   8.00000   0.04944    0.00000 180.00000   0.00407    48   49   50      3
    50  -0.07417   0.51100   8.00000   0.04944    0.00000 180.00000   0.00407    49   50   51      3
    51  -0.12361   0.51100   8.00000   0.04944    0.00000 180.00000   0.00407    50   51   52      3
    52  -0.17306   0.51100   8.00000   0.04944    0.00000 180.00000   0.00407    51   52   53      3
    53  -0.22250   0.51100   8.00000   0.04944    0.00000 180.00000   0.00407    52   53   54      3
    54  -0.27194   0.51100   8.00000   0.04944    0.00000 180.00000   0.00407    53   54   55      3
    55  -0.32139   0.51100   8.00000   0.04944    0.00000 180.00000   0.00407    54   55   56      3
    56  -0.37083   0.51100   8.00000   0.04944    0.00000 180.00000   0.00407    55   56   57      3
    57  -0.42028   0.51100   8.00000   0.04944    0.00000 180.00000   0.00407    56   57    0      3






 ***** DATA CARD NO.  1   GN   2     0     0     0  1.10000E+01  1.00000E-02  0.00000E+00  0.00000E+00  0.00000E+00  0.00000E+00
 ***** DATA CARD NO.  2   EK   0     0     0     0  0.00000E+00  0.00000E+00  0.00000E+00  0.00000E+00  0.00000E+00  0.00000E+00
 ***** DATA CARD NO.  3   LD   5     0     0     0  5.80000E+07  0.00000E+00  0.00000E+00  0.00000E+00  0.00000E+00  0.00000E+00
 ***** DATA CARD NO.  4   EX   0   999     1     0  1.00000E+00  0.00000E+00  0.00000E+00  0.00000E+00  0.00000E+00  0.00000E+00
 ***** DATA CARD NO.  5   FR   0     1     0     0  1.44200E+02  0.00000E+00  0.00000E+00  0.00000E+00  0.00000E+00  0.00000E+00
 ***** DATA CARD NO.  6   RP   0     1     1  1000  8.70000E+01  9.00000E+01  0.00000E+00  0.00000E+00  0.00000E+00  0.00000E+00




                                 - - - - - - FREQUENCY - - - - - -

                                    FREQUENCY= 1.4420E+02 MHZ
                                    WAVELENGTH= 2.0791E+00 METERS




                    APPROXIMATE INTEGRATION EMPLOYED FOR SEGMENTS MORE THAN   1.000 WAVELENGTHS APART

                    THE EXTENDED THIN WIRE KERNEL WILL BE USED



                               - - - STRUCTURE IMPEDANCE LOADING - - -


       LOCATION          RESISTANCE   INDUCTANCE  CAPACITANCE       IMPEDANCE (OHMS)     CONDUCTIVITY    TYPE
    ITAG FROM THRU          OHMS        HENRYS       FARADS        REAL      IMAGINARY    MHOS/METER

     ALL                                                                                 5.8000E+07     WIRE  



                                  - - - ANTENNA ENVIRONMENT - - -

                                        FINITE GROUND.  SOMMERFELD SOLUTION
                                        RELATIVE DIELECTRIC CONST.= 11.000
                                        CONDUCTIVITY= 1.000E-02 MHOS/METER
                                        COMPLEX DIELECTRIC CONSTANT= 1.10000E+01-1.24660E+00



                                - - - MATRIX TIMING - - -

                        FILL=    0.016 SEC.,  FACTOR=    0.000 SEC.



                                          - - - ANTENNA INPUT PARAMETERS - - -

   TAG   SEG.    VOLTAGE (VOLTS)         CURRENT (AMPS)         IMPEDANCE (OHMS)        ADMITTANCE (MHOS)      POWER
   NO.   NO.    REAL        IMAG.       REAL        IMAG.       REAL        IMAG.       REAL        IMAG.     (WATTS)
   999    30 1.00000E+00 0.00000E+00 2.12448E-02-6.54457E-04 4.70256E+01 1.44865E+00 2.12448E-02-6.54457E-04 1.06224E-02



                             - - - CURRENTS AND LOCATION - - -

                                 DISTANCES IN WAVELENGTHS


  SEG.  TAG    COORD. OF SEG. CENTER     SEG.            - - - CURRENT (AMPS) - - -
  NO.   NO.     X        Y        Z      LENGTH     REAL        IMAG.       MAG.        PHASE
     1    1   0.2280   0.0000   3.8479  0.02400  -6.7567E-04  1.3368E-03  1.4979E-03  116.813
     2    1   0.2040   0.0000   3.8479  0.02400  -1.6386E-03  3.1991E-03  3.5944E-03  117.121
     3    1   0.1800   0.0000   3.8479  0.02400  -2.4907E-03  4.8035E-03  5.4108E-03  117.407
     4    1   0.1560   0.0000   3.8479  0.02400  -3.2763E-03  6.2515E-03  7.0580E-03  117.658
     5    1   0.1320   0.0000   3.8479  0.02400  -3.9856E-03  7.5363E-03  8.5253E-03  117.872
     6    1   0.1080   0.0000   3.8479  0.02400  -4.6045E-03  8.6420E-03  9.7921E-03  118.049
     7    1   0.0840   0.0000   3.8479  0.02400  -5.1190E-03  9.5511E-03  1.0836E-02  118.189
     8    1   0.0600   0.0000   3.8479  0.02400  -5.5164E-03  1.0248E-02  1.1638E-02  118.294
     9    1   0.0360   0.0000   3.8479  0.02400  -5.7870E-03  1.0720E-02  1.2182E-02  118.363
    10    1   0.0120   0.0000   3.8479  0.02400  -5.9241E-03  1.0958E-02  1.2457E-02  118.397
    11    1  -0.0120   0.0000   3.8479  0.02400  -5.9241E-03  1.0958E-02  1.2457E-02  118.396
    12    1  -0.0360   0.0000   3.8479  0.02400  -5.7871E-03  1.0720E-02  1.2183E-02  118.361
    13    1  -0.0600   0.0000   3.8479  0.02400  -5.5165E-03  1.0249E-02  1.1639E-02  118.292
    14    1  -0.0840   0.0000   3.8479  0.02400  -5.1191E-03  9.5523E-03  1.0837E-02  118.187
    15    1  -0.1080   0.0000   3.8479  0.02400  -4.6047E-03  8.6432E-03  9.7933E-03  118.046
    16    1  -0.1320   0.0000   3.8479  0.02400  -3.9857E-03  7.5375E-03  8.5264E-03  117.869
    17    1  -0.1560   0.0000   3.8479  0.02400  -3.2764E-03  6.2525E-03  7.0589E-03  117.655
    18    1  -0.1800   0.0000   3.8479  0.02400  -2.4908E-03  4.8043E-03  5.4116E-03  117.404
    19    1  -0.2040   0.0000   3.8479  0.02400  -1.6387E-03  3.1997E-03  3.5949E-03  117.119
    20    1  -0.2280   0.0000   3.8479  0.02400  -6.7572E-04  1.3370E-03  1.4981E-03  116.811
    21    2   0.2265   0.1462   3.8479  0.02501   2.6436E-03 -4.1287E-04  2.6756E-03   -8.877
    22    2   0.2015   0.1462   3.8479  0.02501   6.3588E-03 -9.1168E-04  6.4238E-03   -8.159
    23    2   0.1765   0.1462   3.8479  0.02501   9.5645E-03 -1.2462E-03  9.6454E-03   -7.424
    24    2   0.1515   0.1462   3.8479  0.02501   1.2451E-02 -1.4629E-03  1.2537E-02   -6.701
    25    2   0.1265   0.1462   3.8479  0.02501   1.4995E-02 -1.5737E-03  1.5077E-02   -5.991
    26    2   0.1015   0.1462   3.8479  0.02501   1.7156E-02 -1.5862E-03  1.7229E-02   -5.282
    27    2   0.0765   0.1462   3.8479  0.02501   1.8893E-02 -1.5040E-03  1.8953E-02   -4.551
    28    2   0.0515   0.1462   3.8479  0.02501   2.0170E-02 -1.3255E-03  2.0214E-02   -3.760
    29    2   0.0265   0.1462   3.8479  0.02501   2.0960E-02 -1.0241E-03  2.0985E-02   -2.797
    30  999   0.0014   0.1462   3.8479  0.02501   2.1245E-02 -6.5446E-04  2.1255E-02   -1.764
    31    2  -0.0237   0.1462   3.8479  0.02533   2.1016E-02 -1.0327E-03  2.1041E-02   -2.813
    32    2  -0.0491   0.1462   3.8479  0.02533   2.0267E-02 -1.3430E-03  2.0312E-02   -3.791
    33    2  -0.0744   0.1462   3.8479  0.02533   1.9017E-02 -1.5277E-03  1.9078E-02   -4.593
    34    2  -0.0997   0.1462   3.8479  0.02533   1.7292E-02 -1.6140E-03  1.7367E-02   -5.332
    35    2  -0.1251   0.1462   3.8479  0.02533   1.5129E-02 -1.6031E-03  1.5214E-02   -6.049
    36    2  -0.1504   0.1462   3.8479  0.02533   1.2572E-02 -1.4915E-03  1.2660E-02   -6.766
    37    2  -0.1757   0.1462   3.8479  0.02533   9.6610E-03 -1.2712E-03  9.7442E-03   -7.496
    38    2  -0.2011   0.1462   3.8479  0.02533   6.4225E-03 -9.3007E-04  6.4894E-03   -8.240
    39    2  -0.2264   0.1462   3.8479  0.02533   2.6671E-03 -4.2081E-04  2.7001E-03   -8.966
    40    3   0.2021   0.2458   3.8479  0.02378  -7.9435E-04 -2.1722E-03  2.3128E-03 -110.087
    41    3   0.1784   0.2458   3.8479  0.02378  -1.9168E-03 -5.1266E-03  5.4732E-03 -110.500
    42    3   0.1546   0.2458   3.8479  0.02378  -2.8923E-03 -7.5950E-03  8.1271E-03 -110.848
    43    3   0.1308   0.2458   3.8479  0.02378  -3.7682E-03 -9.7539E-03  1.0456E-02 -111.123
    44    3   0.1070   0.2458   3.8479  0.02378  -4.5309E-03 -1.1600E-02  1.2454E-02 -111.335
    45    3   0.0832   0.2458   3.8479  0.02378  -5.1641E-03 -1.3115E-02  1.4095E-02 -111.493
    46    3   0.0595   0.2458   3.8479  0.02378  -5.6530E-03 -1.4275E-02  1.5354E-02 -111.604
    47    3   0.0357   0.2458   3.8479  0.02378  -5.9857E-03 -1.5061E-02  1.6207E-02 -111.674
    48    3   0.0119   0.2458   3.8479  0.02378  -6.1542E-03 -1.5458E-02  1.6638E-02 -111.708
    49    3  -0.0119   0.2458   3.8479  0.02378  -6.1542E-03 -1.5458E-02  1.6638E-02 -111.709
    50    3  -0.0357   0.2458   3.8479  0.02378  -5.9857E-03 -1.5060E-02  1.6206E-02 -111.676
    51    3  -0.0595   0.2458   3.8479  0.02378  -5.6530E-03 -1.4273E-02  1.5352E-02 -111.607
    52    3  -0.0832   0.2458   3.8479  0.02378  -5.1642E-03 -1.3112E-02  1.4093E-02 -111.497
    53    3  -0.1070   0.2458   3.8479  0.02378  -4.5310E-03 -1.1598E-02  1.2451E-02 -111.339
    54    3  -0.1308   0.2458   3.8479  0.02378  -3.7683E-03 -9.7519E-03  1.0455E-02 -111.127
    55    3  -0.1546   0.2458   3.8479  0.02378  -2.8924E-03 -7.5934E-03  8.1256E-03 -110.852
    56    3  -0.1784   0.2458   3.8479  0.02378  -1.9168E-03 -5.1255E-03  5.4722E-03 -110.505
    57    3  -0.2021   0.2458   3.8479  0.02378  -7.9438E-04 -2.1717E-03  2.3125E-03 -110.092



                                        - - - POWER BUDGET - - -

                                           INPUT POWER   = 1.0622E-02 WATTS
                                           RADIATED POWER= 1.0595E-02 WATTS
                                           STRUCTURE LOSS= 2.7704E-05 WATTS
                                           NETWORK LOSS  = 0.0000E+00 WATTS
                                           EFFICIENCY    =  99.74 PERCENT



                                                - - - RADIATION PATTERNS - - -

  - - ANGLES - -           - POWER GAINS -       - - - POLARIZATION - - -    - - - E(THETA) - - -    - - - E(PHI) - - -
  THETA     PHI        VERT.   HOR.    TOTAL      AXIAL     TILT   SENSE     MAGNITUDE    PHASE      MAGNITUDE    PHASE 
 DEGREES  DEGREES       DB      DB      DB        RATIO     DEG.              VOLTS/M    DEGREES      VOLTS/M    DEGREES
   87.00    90.00    -999.99   12.69   12.69    0.00000    90.00  LINEAR    2.93786E-13   -17.17    3.43786E+00    42.71






 ***** DATA CARD NO.  7   EN   0     1     1  1000  8.70000E+01  9.00000E+01  0.00000E+00  0.00000E+00  0.00000E+00  0.00000E+00

 RUN TIME =     0.078
