1



                                 *********************************************

                                    NUMERICAL ELECTROMAGNETICS CODE (NEC-2D)

                                 *********************************************




                                     - - - - COMMENTS - - - -


                          No comments specified                                                      
                                                                                                     




                                 - - - STRUCTURE SPECIFICATION - - -

                                     COORDINATES MUST BE INPUT IN
                                     METERS OR BE SCALED TO METERS
                                     BEFORE STRUCTURE INPUT IS ENDED


  WIRE                                                                               NO. OF    FIRST  LAST     TAG
  NO.        X1         Y1         Z1          X2         Y2         Z2      RADIUS   SEG.     SEG.   SEG.     NO.
     1   -0.60000    0.00000    0.00000     0.60000    0.00000    0.00000    0.00050     11        1    11       1
      THE STRUCTURE HAS BEEN MOVED, MOVE DATA CARD IS -
        0    0  90.00000   0.00000   0.00000   0.00000   0.00000   0.00000   0.00000
      THE STRUCTURE HAS BEEN MOVED, MOVE DATA CARD IS -
        0    0   0.00000   0.00000  90.00000   0.00000   0.00000   0.00000   0.00000
      THE STRUCTURE HAS BEEN MOVED, MOVE DATA CARD IS -
        0    0   0.00000   0.00000   0.00000   0.00000   0.00000   8.00000   0.00000

   GROUND PLANE SPECIFIED.

   WHERE WIRE ENDS TOUCH GROUND, CURRENT WILL BE INTERPOLATED TO IMAGE IN GROUND PLANE.


   TOTAL SEGMENTS USED=   11     NO. SEG. IN A SYMMETRIC CELL=   11     SYMMETRY FLAG=  0


         - MULTIPLE WIRE JUNCTIONS -
 JUNCTION    SEGMENTS  (- FOR END 1, + FOR END 2)
  NONE




                                 - - - - SEGMENTATION DATA - - - -

                                        COORDINATES IN METERS

                         I+ AND I- INDICATE THE SEGMENTS BEFORE AND AFTER I


  SEG.   COORDINATES OF SEG. CENTER     SEG.     ORIENTATION ANGLES    WIRE    CONNECTION DATA   TAG
  NO.       X         Y         Z       LENGTH     ALPHA     BETA      RADIUS    I-   I    I+    NO.
     1   0.00000  -0.54545   8.00000   0.10909    0.00000  90.00000   0.00050     0    1    2      1
     2   0.00000  -0.43636   8.00000   0.10909    0.00000  90.00000   0.00050     1    2    3      1
     3   0.00000  -0.32727   8.00000   0.10909    0.00000  90.00000   0.00050     2    3    4      1
     4   0.00000  -0.21818   8.00000   0.10909    0.00000  90.00000   0.00050     3    4    5      1
     5   0.00000  -0.10909   8.00000   0.10909    0.00000  90.00000   0.00050     4    5    6      1
     6   0.00000   0.00000   8.00000   0.10909    0.00000  90.00000   0.00050     5    6    7      1
     7   0.00000   0.10909   8.00000   0.10909    0.00000  90.00000   0.00050     6    7    8      1
     8   0.00000   0.21818   8.00000   0.10909    0.00000  90.00000   0.00050     7    8    9      1
     9   0.00000   0.32727   8.00000   0.10909    0.00000  90.00000   0.00050     8    9   10      1
    10   0.00000   0.43636   8.00000   0.10909    0.00000  90.00000   0.00050     9   10   11      1
    11   0.00000   0.54545   8.00000   0.10909    0.00000  90.00000   0.00050    10   11    0      1






 ***** DATA CARD NO.  1   GN   2     0     0     0  1.10000E+01  1.00000E-02  0.00000E+00  0.00000E+00  0.00000E+00  0.00000E+00
 ***** DATA CARD NO.  2   LD   5     0     0     0  5.80000E+07  0.00000E+00  0.00000E+00  0.00000E+00  0.00000E+00  0.00000E+00
 ***** DATA CARD NO.  3   LD   5     0     0     0  5.80000E+07  0.00000E+00  0.00000E+00  0.00000E+00  0.00000E+00  0.00000E+00
 ***** DATA CARD NO.  4   LD   5     0     0     0  5.80000E+07  0.00000E+00  0.00000E+00  0.00000E+00  0.00000E+00  0.00000E+00
 ***** DATA CARD NO.  5   LD   5     0     0     0  5.80000E+07  0.00000E+00  0.00000E+00  0.00000E+00  0.00000E+00  0.00000E+00
 ***** DATA CARD NO.  6   LD   5     0     0     0  5.80000E+07  0.00000E+00  0.00000E+00  0.00000E+00  0.00000E+00  0.00000E+00
 ***** DATA CARD NO.  7   EX   0     1     6     0  1.00000E+00  0.00000E+00  0.00000E+00  0.00000E+00  0.00000E+00  0.00000E+00
 ***** DATA CARD NO.  8   FR   0     1     0     0  1.44200E+02  0.00000E+00  0.00000E+00  0.00000E+00  0.00000E+00  0.00000E+00
 ***** DATA CARD NO.  9   RP   0     1     1  1000  8.50000E+01  0.00000E+00  0.00000E+00  0.00000E+00  0.00000E+00  0.00000E+00




                                 - - - - - - FREQUENCY - - - - - -

                                    FREQUENCY= 1.4420E+02 MHZ
                                    WAVELENGTH= 2.0791E+00 METERS




                    APPROXIMATE INTEGRATION EMPLOYED FOR SEGMENTS MORE THAN   1.000 WAVELENGTHS APART



                               - - - STRUCTURE IMPEDANCE LOADING - - -


       LOCATION          RESISTANCE   INDUCTANCE  CAPACITANCE       IMPEDANCE (OHMS)     CONDUCTIVITY    TYPE
    ITAG FROM THRU          OHMS        HENRYS       FARADS        REAL      IMAGINARY    MHOS/METER

     ALL                                                                                 5.8000E+07     WIRE  

     ALL                                                                                 5.8000E+07     WIRE  

     ALL                                                                                 5.8000E+07     WIRE  

     ALL                                                                                 5.8000E+07     WIRE  

     ALL                                                                                 5.8000E+07     WIRE  

          NOTE, SOME OF THE ABOVE SEGMENTS HAVE BEEN LOADED TWICE - IMPEDANCES ADDED



                                  - - - ANTENNA ENVIRONMENT - - -

                                        FINITE GROUND.  SOMMERFELD SOLUTION
                                        RELATIVE DIELECTRIC CONST.= 11.000
                                        CONDUCTIVITY= 1.000E-02 MHOS/METER
                                        COMPLEX DIELECTRIC CONSTANT= 1.10000E+01-1.24660E+00



                                - - - MATRIX TIMING - - -

                        FILL=    0.000 SEC.,  FACTOR=    0.000 SEC.



                                          - - - ANTENNA INPUT PARAMETERS - - -

   TAG   SEG.    VOLTAGE (VOLTS)         CURRENT (AMPS)         IMPEDANCE (OHMS)        ADMITTANCE (MHOS)      POWER
   NO.   NO.    REAL        IMAG.       REAL        IMAG.       REAL        IMAG.       REAL        IMAG.     (WATTS)
     1     6 1.00000E+00 0.00000E+00 1.74078E-03-3.15927E-03 1.33790E+02 2.42810E+02 1.74078E-03-3.15927E-03 8.70392E-04



                             - - - CURRENTS AND LOCATION - - -

                                 DISTANCES IN WAVELENGTHS


  SEG.  TAG    COORD. OF SEG. CENTER     SEG.            - - - CURRENT (AMPS) - - -
  NO.   NO.     X        Y        Z      LENGTH     REAL        IMAG.       MAG.        PHASE
     1    1   0.0000  -0.2624   3.8479  0.05247   2.6721E-04 -7.0392E-04  7.5293E-04  -69.213
     2    1   0.0000  -0.2099   3.8479  0.05247   7.3913E-04 -1.8535E-03  1.9954E-03  -68.259
     3    1   0.0000  -0.1574   3.8479  0.05247   1.1466E-03 -2.7152E-03  2.9474E-03  -67.107
     4    1   0.0000  -0.1049   3.8479  0.05247   1.4662E-03 -3.2380E-03  3.5545E-03  -65.638
     5    1   0.0000  -0.0525   3.8479  0.05247   1.6705E-03 -3.3581E-03  3.7506E-03  -63.552
     6    1   0.0000   0.0000   3.8479  0.05247   1.7408E-03 -3.1593E-03  3.6071E-03  -61.145
     7    1   0.0000   0.0525   3.8479  0.05247   1.6705E-03 -3.3581E-03  3.7506E-03  -63.552
     8    1   0.0000   0.1049   3.8479  0.05247   1.4662E-03 -3.2380E-03  3.5545E-03  -65.638
     9    1   0.0000   0.1574   3.8479  0.05247   1.1466E-03 -2.7152E-03  2.9474E-03  -67.107
    10    1   0.0000   0.2099   3.8479  0.05247   7.3913E-04 -1.8535E-03  1.9954E-03  -68.259
    11    1   0.0000   0.2624   3.8479  0.05247   2.6721E-04 -7.0392E-04  7.5293E-04  -69.213



                                        - - - POWER BUDGET - - -

                                           INPUT POWER   = 8.7039E-04 WATTS
                                           RADIATED POWER= 8.4512E-04 WATTS
                                           STRUCTURE LOSS= 2.5271E-05 WATTS
                                           NETWORK LOSS  = 0.0000E+00 WATTS
                                           EFFICIENCY    =  97.10 PERCENT



                                                - - - RADIATION PATTERNS - - -

  - - ANGLES - -           - POWER GAINS -       - - - POLARIZATION - - -    - - - E(THETA) - - -    - - - E(PHI) - - -
  THETA     PHI        VERT.   HOR.    TOTAL      AXIAL     TILT   SENSE     MAGNITUDE    PHASE      MAGNITUDE    PHASE 
 DEGREES  DEGREES       DB      DB      DB        RATIO     DEG.              VOLTS/M    DEGREES      VOLTS/M    DEGREES
   85.00     0.00    -999.99    6.57    6.57    0.00000   -90.00  LINEAR    1.11635E-13   177.65    4.86676E-01   -64.53






 ***** DATA CARD NO. 10   EN   0     1     1  1000  8.50000E+01  0.00000E+00  0.00000E+00  0.00000E+00  0.00000E+00  0.00000E+00

 RUN TIME =     0.078
