1



                                 *********************************************

                                    NUMERICAL ELECTROMAGNETICS CODE (NEC-2D)

                                 *********************************************




                                     - - - - COMMENTS - - - -


                          No comments specified                                                      
                                                                                                     




                                 - - - STRUCTURE SPECIFICATION - - -

                                     COORDINATES MUST BE INPUT IN
                                     METERS OR BE SCALED TO METERS
                                     BEFORE STRUCTURE INPUT IS ENDED


  WIRE                                                                               NO. OF    FIRST  LAST     TAG
  NO.        X1         Y1         Z1          X2         Y2         Z2      RADIUS   SEG.     SEG.   SEG.     NO.
     1    0.00000    0.00000   -0.52000     0.00000    0.00000   -0.05200    0.00500      9        1     9       1
     2    0.00000    0.00000   -0.05200     0.00000    0.00000    0.00000    0.00500      1       10    10     999
     3    0.00000    0.00000    0.00000     0.00000    0.00000    0.52000    0.00500      9       11    19       1

   TOTAL SEGMENTS USED=   19     NO. SEG. IN A SYMMETRIC CELL=   19     SYMMETRY FLAG=  0


         - MULTIPLE WIRE JUNCTIONS -
 JUNCTION    SEGMENTS  (- FOR END 1, + FOR END 2)
  NONE




                                 - - - - SEGMENTATION DATA - - - -

                                        COORDINATES IN METERS

                         I+ AND I- INDICATE THE SEGMENTS BEFORE AND AFTER I


  SEG.   COORDINATES OF SEG. CENTER     SEG.     ORIENTATION ANGLES    WIRE    CONNECTION DATA   TAG
  NO.       X         Y         Z       LENGTH     ALPHA     BETA      RADIUS    I-   I    I+    NO.
     1   0.00000   0.00000  -0.49400   0.05200   90.00000   0.00000   0.00500     0    1    2      1
     2   0.00000   0.00000  -0.44200   0.05200   90.00000   0.00000   0.00500     1    2    3      1
     3   0.00000   0.00000  -0.39000   0.05200   90.00000   0.00000   0.00500     2    3    4      1
     4   0.00000   0.00000  -0.33800   0.05200   90.00000   0.00000   0.00500     3    4    5      1
     5   0.00000   0.00000  -0.28600   0.05200   90.00000   0.00000   0.00500     4    5    6      1
     6   0.00000   0.00000  -0.23400   0.05200   90.00000   0.00000   0.00500     5    6    7      1
     7   0.00000   0.00000  -0.18200   0.05200   90.00000   0.00000   0.00500     6    7    8      1
     8   0.00000   0.00000  -0.13000   0.05200   90.00000   0.00000   0.00500     7    8    9      1
     9   0.00000   0.00000  -0.07800   0.05200   90.00000   0.00000   0.00500     8    9   10      1
    10   0.00000   0.00000  -0.02600   0.05200   90.00000   0.00000   0.00500     9   10   11    999
    11   0.00000   0.00000   0.02889   0.05778   90.00000   0.00000   0.00500    10   11   12      1
    12   0.00000   0.00000   0.08667   0.05778   90.00000   0.00000   0.00500    11   12   13      1
    13   0.00000   0.00000   0.14444   0.05778   90.00000   0.00000   0.00500    12   13   14      1
    14   0.00000   0.00000   0.20222   0.05778   90.00000   0.00000   0.00500    13   14   15      1
    15   0.00000   0.00000   0.26000   0.05778   90.00000   0.00000   0.00500    14   15   16      1
    16   0.00000   0.00000   0.31778   0.05778   90.00000   0.00000   0.00500    15   16   17      1
    17   0.00000   0.00000   0.37556   0.05778   90.00000   0.00000   0.00500    16   17   18      1
    18   0.00000   0.00000   0.43333   0.05778   90.00000   0.00000   0.00500    17   18   19      1
    19   0.00000   0.00000   0.49111   0.05778   90.00000   0.00000   0.00500    18   19    0      1






 ***** DATA CARD NO.  1   EK   0     0     0     0  0.00000E+00  0.00000E+00  0.00000E+00  0.00000E+00  0.00000E+00  0.00000E+00
 ***** DATA CARD NO.  2   LD   5     0     0     0  5.80000E+07  0.00000E+00  0.00000E+00  0.00000E+00  0.00000E+00  0.00000E+00
 ***** DATA CARD NO.  3   EX   0   999     1     0  1.00000E+00  0.00000E+00  0.00000E+00  0.00000E+00  0.00000E+00  0.00000E+00
 ***** DATA CARD NO.  4   FR   0     1     0     0  1.44200E+02  0.00000E+00  0.00000E+00  0.00000E+00  0.00000E+00  0.00000E+00
 ***** DATA CARD NO.  5   RP   0     1     1  1000  9.00000E+01  0.00000E+00  0.00000E+00  0.00000E+00  0.00000E+00  0.00000E+00




                                 - - - - - - FREQUENCY - - - - - -

                                    FREQUENCY= 1.4420E+02 MHZ
                                    WAVELENGTH= 2.0791E+00 METERS




                    APPROXIMATE INTEGRATION EMPLOYED FOR SEGMENTS MORE THAN   1.000 WAVELENGTHS APART

                    THE EXTENDED THIN WIRE KERNEL WILL BE USED



                               - - - STRUCTURE IMPEDANCE LOADING - - -


       LOCATION          RESISTANCE   INDUCTANCE  CAPACITANCE       IMPEDANCE (OHMS)     CONDUCTIVITY    TYPE
    ITAG FROM THRU          OHMS        HENRYS       FARADS        REAL      IMAGINARY    MHOS/METER

     ALL                                                                                 5.8000E+07     WIRE  



                                  - - - ANTENNA ENVIRONMENT - - -

                                            FREE SPACE



                                - - - MATRIX TIMING - - -

                        FILL=    0.016 SEC.,  FACTOR=    0.000 SEC.



                                          - - - ANTENNA INPUT PARAMETERS - - -

   TAG   SEG.    VOLTAGE (VOLTS)         CURRENT (AMPS)         IMPEDANCE (OHMS)        ADMITTANCE (MHOS)      POWER
   NO.   NO.    REAL        IMAG.       REAL        IMAG.       REAL        IMAG.       REAL        IMAG.     (WATTS)
   999    10 1.00000E+00 0.00000E+00 8.53951E-03-4.74410E-03 8.94848E+01 4.97131E+01 8.53951E-03-4.74410E-03 4.26975E-03



                             - - - CURRENTS AND LOCATION - - -

                                 DISTANCES IN WAVELENGTHS


  SEG.  TAG    COORD. OF SEG. CENTER     SEG.            - - - CURRENT (AMPS) - - -
  NO.   NO.     X        Y        Z      LENGTH     REAL        IMAG.       MAG.        PHASE
     1    1   0.0000   0.0000  -0.2376  0.02501   1.0662E-03 -8.5405E-04  1.3661E-03  -38.695
     2    1   0.0000   0.0000  -0.2126  0.02501   2.5125E-03 -1.9684E-03  3.1917E-03  -38.077
     3    1   0.0000   0.0000  -0.1876  0.02501   3.7563E-03 -2.8727E-03  4.7289E-03  -37.408
     4    1   0.0000   0.0000  -0.1626  0.02501   4.8799E-03 -3.6357E-03  6.0854E-03  -36.687
     5    1   0.0000   0.0000  -0.1376  0.02501   5.8777E-03 -4.2539E-03  7.2555E-03  -35.895
     6    1   0.0000   0.0000  -0.1126  0.02501   6.7371E-03 -4.7179E-03  8.2248E-03  -35.003
     7    1   0.0000   0.0000  -0.0875  0.02501   7.4444E-03 -5.0158E-03  8.9765E-03  -33.971
     8    1   0.0000   0.0000  -0.0625  0.02501   7.9869E-03 -5.1329E-03  9.4941E-03  -32.727
     9    1   0.0000   0.0000  -0.0375  0.02501   8.3543E-03 -5.0281E-03  9.7507E-03  -31.042
    10  999   0.0000   0.0000  -0.0125  0.02501   8.5395E-03 -4.7441E-03  9.7688E-03  -29.054
    11    1   0.0000   0.0000   0.0139  0.02779   8.5334E-03 -5.2059E-03  9.9960E-03  -31.386
    12    1   0.0000   0.0000   0.0417  0.02779   8.3036E-03 -5.4682E-03  9.9424E-03  -33.366
    13    1   0.0000   0.0000   0.0695  0.02779   7.8502E-03 -5.4571E-03  9.5606E-03  -34.805
    14    1   0.0000   0.0000   0.0973  0.02779   7.1841E-03 -5.2155E-03  8.8777E-03  -35.979
    15    1   0.0000   0.0000   0.1251  0.02779   6.3206E-03 -4.7591E-03  7.9120E-03  -36.978
    16    1   0.0000   0.0000   0.1528  0.02779   5.2780E-03 -4.1022E-03  6.6847E-03  -37.855
    17    1   0.0000   0.0000   0.1806  0.02779   4.0749E-03 -3.2581E-03  5.2173E-03  -38.645
    18    1   0.0000   0.0000   0.2084  0.02779   2.7234E-03 -2.2348E-03  3.5230E-03  -39.372
    19    1   0.0000   0.0000   0.2362  0.02779   1.1441E-03 -9.6136E-04  1.4944E-03  -40.040



                                        - - - POWER BUDGET - - -

                                           INPUT POWER   = 4.2698E-03 WATTS
                                           RADIATED POWER= 4.2668E-03 WATTS
                                           STRUCTURE LOSS= 2.9274E-06 WATTS
                                           NETWORK LOSS  = 0.0000E+00 WATTS
                                           EFFICIENCY    =  99.93 PERCENT



                                                - - - RADIATION PATTERNS - - -

  - - ANGLES - -           - POWER GAINS -       - - - POLARIZATION - - -    - - - E(THETA) - - -    - - - E(PHI) - - -
  THETA     PHI        VERT.   HOR.    TOTAL      AXIAL     TILT   SENSE     MAGNITUDE    PHASE      MAGNITUDE    PHASE 
 DEGREES  DEGREES       DB      DB      DB        RATIO     DEG.              VOLTS/M    DEGREES      VOLTS/M    DEGREES
   90.00     0.00       2.22 -999.99    2.22    0.00000     0.00  LINEAR    6.53217E-01    55.37    0.00000E+00     0.00






 ***** DATA CARD NO.  6   EN   0     1     1  1000  9.00000E+01  0.00000E+00  0.00000E+00  0.00000E+00  0.00000E+00  0.00000E+00

 RUN TIME =     0.016
