1



                                 *********************************************

                                    NUMERICAL ELECTROMAGNETICS CODE (NEC-2D)

                                 *********************************************




                                     - - - - COMMENTS - - - -


                          No comments specified                                                      
                                                                                                     




                                 - - - STRUCTURE SPECIFICATION - - -

                                     COORDINATES MUST BE INPUT IN
                                     METERS OR BE SCALED TO METERS
                                     BEFORE STRUCTURE INPUT IS ENDED


  WIRE                                                                               NO. OF    FIRST  LAST     TAG
  NO.        X1         Y1         Z1          X2         Y2         Z2      RADIUS   SEG.     SEG.   SEG.     NO.
     1    0.30000    0.00000    0.00000    -0.30000    0.00000    0.00000    0.00344     12        1    12       1
     2    0.40900    0.14300    0.00000     0.04500    0.14300    0.00000    0.00653      7       13    19       2
     3    0.04500    0.14300    0.00000    -0.00700    0.14300    0.00000    0.00653      1       20    20     999
     4   -0.00700    0.14300    0.00000    -0.40900    0.14300    0.00000    0.00653      7       21    27       2
     5    0.51800    0.30200    0.00000    -0.51800    0.30200    0.00000    0.00415     20       28    47       3
      THE STRUCTURE HAS BEEN MOVED, MOVE DATA CARD IS -
        0    0   0.00000   0.00000   0.00000   0.00000   0.00000   8.00000   0.00000

   GROUND PLANE SPECIFIED.

   WHERE WIRE ENDS TOUCH GROUND, CURRENT WILL BE INTERPOLATED TO IMAGE IN GROUND PLANE.


   TOTAL SEGMENTS USED=   47     NO. SEG. IN A SYMMETRIC CELL=   47     SYMMETRY FLAG=  0


         - MULTIPLE WIRE JUNCTIONS -
 JUNCTION    SEGMENTS  (- FOR END 1, + FOR END 2)
  NONE




                                 - - - - SEGMENTATION DATA - - - -

                                        COORDINATES IN METERS

                         I+ AND I- INDICATE THE SEGMENTS BEFORE AND AFTER I


  SEG.   COORDINATES OF SEG. CENTER     SEG.     ORIENTATION ANGLES    WIRE    CONNECTION DATA   TAG
  NO.       X         Y         Z       LENGTH     ALPHA     BETA      RADIUS    I-   I    I+    NO.
     1   0.27500   0.00000   8.00000   0.05000    0.00000 180.00000   0.00344     0    1    2      1
     2   0.22500   0.00000   8.00000   0.05000    0.00000 180.00000   0.00344     1    2    3      1
     3   0.17500   0.00000   8.00000   0.05000    0.00000 180.00000   0.00344     2    3    4      1
     4   0.12500   0.00000   8.00000   0.05000    0.00000 180.00000   0.00344     3    4    5      1
     5   0.07500   0.00000   8.00000   0.05000    0.00000 180.00000   0.00344     4    5    6      1
     6   0.02500   0.00000   8.00000   0.05000    0.00000 180.00000   0.00344     5    6    7      1
     7  -0.02500   0.00000   8.00000   0.05000    0.00000 180.00000   0.00344     6    7    8      1
     8  -0.07500   0.00000   8.00000   0.05000    0.00000 180.00000   0.00344     7    8    9      1
     9  -0.12500   0.00000   8.00000   0.05000    0.00000 180.00000   0.00344     8    9   10      1
    10  -0.17500   0.00000   8.00000   0.05000    0.00000 180.00000   0.00344     9   10   11      1
    11  -0.22500   0.00000   8.00000   0.05000    0.00000 180.00000   0.00344    10   11   12      1
    12  -0.27500   0.00000   8.00000   0.05000    0.00000 180.00000   0.00344    11   12    0      1
    13   0.38300   0.14300   8.00000   0.05200    0.00000 180.00000   0.00653     0   13   14      2
    14   0.33100   0.14300   8.00000   0.05200    0.00000 180.00000   0.00653    13   14   15      2
    15   0.27900   0.14300   8.00000   0.05200    0.00000 180.00000   0.00653    14   15   16      2
    16   0.22700   0.14300   8.00000   0.05200    0.00000 180.00000   0.00653    15   16   17      2
    17   0.17500   0.14300   8.00000   0.05200    0.00000 180.00000   0.00653    16   17   18      2
    18   0.12300   0.14300   8.00000   0.05200    0.00000 180.00000   0.00653    17   18   19      2
    19   0.07100   0.14300   8.00000   0.05200    0.00000 180.00000   0.00653    18   19   20      2
    20   0.01900   0.14300   8.00000   0.05200    0.00000 180.00000   0.00653    19   20   21    999
    21  -0.03571   0.14300   8.00000   0.05743    0.00000 180.00000   0.00653    20   21   22      2
    22  -0.09314   0.14300   8.00000   0.05743    0.00000 180.00000   0.00653    21   22   23      2
    23  -0.15057   0.14300   8.00000   0.05743    0.00000 180.00000   0.00653    22   23   24      2
    24  -0.20800   0.14300   8.00000   0.05743    0.00000 180.00000   0.00653    23   24   25      2
    25  -0.26543   0.14300   8.00000   0.05743    0.00000 180.00000   0.00653    24   25   26      2
    26  -0.32286   0.14300   8.00000   0.05743    0.00000 180.00000   0.00653    25   26   27      2
    27  -0.38029   0.14300   8.00000   0.05743    0.00000 180.00000   0.00653    26   27    0      2
    28   0.49210   0.30200   8.00000   0.05180    0.00000 180.00000   0.00415     0   28   29      3
    29   0.44030   0.30200   8.00000   0.05180    0.00000 180.00000   0.00415    28   29   30      3
    30   0.38850   0.30200   8.00000   0.05180    0.00000 180.00000   0.00415    29   30   31      3
    31   0.33670   0.30200   8.00000   0.05180    0.00000 180.00000   0.00415    30   31   32      3
    32   0.28490   0.30200   8.00000   0.05180    0.00000 180.00000   0.00415    31   32   33      3
    33   0.23310   0.30200   8.00000   0.05180    0.00000 180.00000   0.00415    32   33   34      3
    34   0.18130   0.30200   8.00000   0.05180    0.00000 180.00000   0.00415    33   34   35      3
    35   0.12950   0.30200   8.00000   0.05180    0.00000 180.00000   0.00415    34   35   36      3
    36   0.07770   0.30200   8.00000   0.05180    0.00000 180.00000   0.00415    35   36   37      3
    37   0.02590   0.30200   8.00000   0.05180    0.00000 180.00000   0.00415    36   37   38      3
    38  -0.02590   0.30200   8.00000   0.05180    0.00000 180.00000   0.00415    37   38   39      3
    39  -0.07770   0.30200   8.00000   0.05180    0.00000 180.00000   0.00415    38   39   40      3
    40  -0.12950   0.30200   8.00000   0.05180    0.00000 180.00000   0.00415    39   40   41      3
    41  -0.18130   0.30200   8.00000   0.05180    0.00000 180.00000   0.00415    40   41   42      3
    42  -0.23310   0.30200   8.00000   0.05180    0.00000 180.00000   0.00415    41   42   43      3
    43  -0.28490   0.30200   8.00000   0.05180    0.00000 180.00000   0.00415    42   43   44      3
    44  -0.33670   0.30200   8.00000   0.05180    0.00000 180.00000   0.00415    43   44   45      3
    45  -0.38850   0.30200   8.00000   0.05180    0.00000 180.00000   0.00415    44   45   46      3
    46  -0.44030   0.30200   8.00000   0.05180    0.00000 180.00000   0.00415    45   46   47      3
    47  -0.49210   0.30200   8.00000   0.05180    0.00000 180.00000   0.00415    46   47    0      3






 ***** DATA CARD NO.  1   GN   2     0     0     0  1.10000E+01  1.00000E-02  0.00000E+00  0.00000E+00  0.00000E+00  0.00000E+00
 ***** DATA CARD NO.  2   EK   0     0     0     0  0.00000E+00  0.00000E+00  0.00000E+00  0.00000E+00  0.00000E+00  0.00000E+00
 ***** DATA CARD NO.  3   LD   5     0     0     0  5.80000E+07  0.00000E+00  0.00000E+00  0.00000E+00  0.00000E+00  0.00000E+00
 ***** DATA CARD NO.  4   EX   0   999     1     0  1.00000E+00  0.00000E+00  0.00000E+00  0.00000E+00  0.00000E+00  0.00000E+00
 ***** DATA CARD NO.  5   FR   0     1     0     0  1.44200E+02  0.00000E+00  0.00000E+00  0.00000E+00  0.00000E+00  0.00000E+00
 ***** DATA CARD NO.  6   RP   0     1     1  1000  8.70000E+01  9.00000E+01  0.00000E+00  0.00000E+00  0.00000E+00  0.00000E+00




                                 - - - - - - FREQUENCY - - - - - -

                                    FREQUENCY= 1.4420E+02 MHZ
                                    WAVELENGTH= 2.0791E+00 METERS




                    APPROXIMATE INTEGRATION EMPLOYED FOR SEGMENTS MORE THAN   1.000 WAVELENGTHS APART

                    THE EXTENDED THIN WIRE KERNEL WILL BE USED



                               - - - STRUCTURE IMPEDANCE LOADING - - -


       LOCATION          RESISTANCE   INDUCTANCE  CAPACITANCE       IMPEDANCE (OHMS)     CONDUCTIVITY    TYPE
    ITAG FROM THRU          OHMS        HENRYS       FARADS        REAL      IMAGINARY    MHOS/METER

     ALL                                                                                 5.8000E+07     WIRE  



                                  - - - ANTENNA ENVIRONMENT - - -

                                        FINITE GROUND.  SOMMERFELD SOLUTION
                                        RELATIVE DIELECTRIC CONST.= 11.000
                                        CONDUCTIVITY= 1.000E-02 MHOS/METER
                                        COMPLEX DIELECTRIC CONSTANT= 1.10000E+01-1.24660E+00



                                - - - MATRIX TIMING - - -

                        FILL=    0.000 SEC.,  FACTOR=    0.000 SEC.



                                          - - - ANTENNA INPUT PARAMETERS - - -

   TAG   SEG.    VOLTAGE (VOLTS)         CURRENT (AMPS)         IMPEDANCE (OHMS)        ADMITTANCE (MHOS)      POWER
   NO.   NO.    REAL        IMAG.       REAL        IMAG.       REAL        IMAG.       REAL        IMAG.     (WATTS)
   999    20 1.00000E+00 0.00000E+00 1.43984E-03 1.12909E-02 1.11136E+01-8.71499E+01 1.43984E-03 1.12909E-02 7.19922E-04



                             - - - CURRENTS AND LOCATION - - -

                                 DISTANCES IN WAVELENGTHS


  SEG.  TAG    COORD. OF SEG. CENTER     SEG.            - - - CURRENT (AMPS) - - -
  NO.   NO.     X        Y        Z      LENGTH     REAL        IMAG.       MAG.        PHASE
     1    1   0.1323   0.0000   3.8479  0.02405   9.4869E-05  1.4456E-05  9.5964E-05    8.664
     2    1   0.1082   0.0000   3.8479  0.02405   2.1685E-04  7.6253E-06  2.1698E-04    2.014
     3    1   0.0842   0.0000   3.8479  0.02405   3.0668E-04 -1.9572E-05  3.0730E-04   -3.652
     4    1   0.0601   0.0000   3.8479  0.02405   3.7346E-04 -5.2775E-05  3.7717E-04   -8.043
     5    1   0.0361   0.0000   3.8479  0.02405   4.1798E-04 -8.1195E-05  4.2579E-04  -10.993
     6    1   0.0120   0.0000   3.8479  0.02405   4.4027E-04 -9.5252E-05  4.5045E-04  -12.208
     7    1  -0.0120   0.0000   3.8479  0.02405   4.4024E-04 -8.9742E-05  4.4929E-04  -11.522
     8    1  -0.0361   0.0000   3.8479  0.02405   4.1789E-04 -6.7150E-05  4.2325E-04   -9.129
     9    1  -0.0601   0.0000   3.8479  0.02405   3.7333E-04 -3.5310E-05  3.7500E-04   -5.403
    10    1  -0.0842   0.0000   3.8479  0.02405   3.0653E-04 -3.2784E-06  3.0655E-04   -0.613
    11    1  -0.1082   0.0000   3.8479  0.02405   2.1671E-04  1.9551E-05  2.1759E-04    5.155
    12    1  -0.1323   0.0000   3.8479  0.02405   9.4798E-05  1.9583E-05  9.6799E-05   11.672
    13    2   0.1842   0.0688   3.8479  0.02501   2.4492E-04  1.6263E-03  1.6446E-03   81.436
    14    2   0.1592   0.0688   3.8479  0.02501   5.5333E-04  3.7059E-03  3.7470E-03   81.508
    15    2   0.1342   0.0688   3.8479  0.02501   8.0437E-04  5.4643E-03  5.5232E-03   81.626
    16    2   0.1092   0.0688   3.8479  0.02501   1.0157E-03  7.0295E-03  7.1025E-03   81.778
    17    2   0.0842   0.0688   3.8479  0.02501   1.1866E-03  8.3969E-03  8.4803E-03   81.957
    18    2   0.0592   0.0688   3.8479  0.02501   1.3153E-03  9.5579E-03  9.6479E-03   82.164
    19    2   0.0342   0.0688   3.8479  0.02501   1.4002E-03  1.0539E-02  1.0631E-02   82.432
    20  999   0.0091   0.0688   3.8479  0.02501   1.4398E-03  1.1291E-02  1.1382E-02   82.733
    21    2  -0.0172   0.0688   3.8479  0.02762   1.4319E-03  1.0720E-02  1.0815E-02   82.392
    22    2  -0.0448   0.0688   3.8479  0.02762   1.3691E-03  9.8456E-03  9.9403E-03   82.084
    23    2  -0.0724   0.0688   3.8479  0.02762   1.2517E-03  8.7358E-03  8.8250E-03   81.846
    24    2  -0.1000   0.0688   3.8479  0.02762   1.0820E-03  7.3648E-03  7.4438E-03   81.642
    25    2  -0.1277   0.0688   3.8479  0.02762   8.6231E-04  5.7477E-03  5.8121E-03   81.468
    26    2  -0.1553   0.0688   3.8479  0.02762   5.9434E-04  3.8979E-03  3.9430E-03   81.331
    27    2  -0.1829   0.0688   3.8479  0.02762   2.6069E-04  1.6932E-03  1.7131E-03   81.247
    28    3   0.2367   0.1453   3.8479  0.02492  -4.4513E-04 -5.9092E-04  7.3982E-04 -126.990
    29    3   0.2118   0.1453   3.8479  0.02492  -1.0755E-03 -1.4658E-03  1.8180E-03 -126.268
    30    3   0.1869   0.1453   3.8479  0.02492  -1.6292E-03 -2.2841E-03  2.8057E-03 -125.499
    31    3   0.1619   0.1453   3.8479  0.02492  -2.1380E-03 -3.0796E-03  3.7490E-03 -124.771
    32    3   0.1370   0.1453   3.8479  0.02492  -2.5963E-03 -3.8295E-03  4.6267E-03 -124.137
    33    3   0.1121   0.1453   3.8479  0.02492  -2.9953E-03 -4.5060E-03  5.4108E-03 -123.614
    34    3   0.0872   0.1453   3.8479  0.02492  -3.3263E-03 -5.0832E-03  6.0748E-03 -123.199
    35    3   0.0623   0.1453   3.8479  0.02492  -3.5815E-03 -5.5385E-03  6.5956E-03 -122.889
    36    3   0.0374   0.1453   3.8479  0.02492  -3.7552E-03 -5.8528E-03  6.9539E-03 -122.684
    37    3   0.0125   0.1453   3.8479  0.02492  -3.8431E-03 -6.0107E-03  7.1343E-03 -122.593
    38    3  -0.0125   0.1453   3.8479  0.02492  -3.8432E-03 -6.0044E-03  7.1290E-03 -122.622
    39    3  -0.0374   0.1453   3.8479  0.02492  -3.7555E-03 -5.8359E-03  6.9399E-03 -122.762
    40    3  -0.0623   0.1453   3.8479  0.02492  -3.5820E-03 -5.5157E-03  6.5767E-03 -123.001
    41    3  -0.0872   0.1453   3.8479  0.02492  -3.3269E-03 -5.0586E-03  6.0546E-03 -123.332
    42    3  -0.1121   0.1453   3.8479  0.02492  -2.9961E-03 -4.4828E-03  5.3919E-03 -123.757
    43    3  -0.1370   0.1453   3.8479  0.02492  -2.5972E-03 -3.8096E-03  4.6107E-03 -124.284
    44    3  -0.1619   0.1453   3.8479  0.02492  -2.1389E-03 -3.0641E-03  3.7368E-03 -124.916
    45    3  -0.1869   0.1453   3.8479  0.02492  -1.6300E-03 -2.2735E-03  2.7974E-03 -125.639
    46    3  -0.2118   0.1453   3.8479  0.02492  -1.0761E-03 -1.4596E-03  1.8134E-03 -126.398
    47    3  -0.2367   0.1453   3.8479  0.02492  -4.4542E-04 -5.8875E-04  7.3825E-04 -127.110



                                        - - - POWER BUDGET - - -

                                           INPUT POWER   = 7.1992E-04 WATTS
                                           RADIATED POWER= 7.1644E-04 WATTS
                                           STRUCTURE LOSS= 3.4803E-06 WATTS
                                           NETWORK LOSS  = 0.0000E+00 WATTS
                                           EFFICIENCY    =  99.52 PERCENT



                                                - - - RADIATION PATTERNS - - -

  - - ANGLES - -           - POWER GAINS -       - - - POLARIZATION - - -    - - - E(THETA) - - -    - - - E(PHI) - - -
  THETA     PHI        VERT.   HOR.    TOTAL      AXIAL     TILT   SENSE     MAGNITUDE    PHASE      MAGNITUDE    PHASE 
 DEGREES  DEGREES       DB      DB      DB        RATIO     DEG.              VOLTS/M    DEGREES      VOLTS/M    DEGREES
   87.00    90.00    -999.99   -1.44   -1.44    0.00000    90.00  LINEAR    1.50388E-14    28.24    1.75983E-01    88.12






 ***** DATA CARD NO.  7   EN   0     1     1  1000  8.70000E+01  9.00000E+01  0.00000E+00  0.00000E+00  0.00000E+00  0.00000E+00

 RUN TIME =     0.109
