1



                                 *********************************************

                                    NUMERICAL ELECTROMAGNETICS CODE (NEC-2D)

                                 *********************************************




                                     - - - - COMMENTS - - - -


                          No comments specified                                                      
                                                                                                     




                                 - - - STRUCTURE SPECIFICATION - - -

                                     COORDINATES MUST BE INPUT IN
                                     METERS OR BE SCALED TO METERS
                                     BEFORE STRUCTURE INPUT IS ENDED


  WIRE                                                                               NO. OF    FIRST  LAST     TAG
  NO.        X1         Y1         Z1          X2         Y2         Z2      RADIUS   SEG.     SEG.   SEG.     NO.
     1    0.13600    0.00000    0.12500     0.02600    0.00000    0.12500    0.00300      2        1     2       1
     2    0.02600    0.00000    0.12500    -0.02600    0.00000    0.12500    0.00300      1        3     3     999
     3   -0.02600    0.00000    0.12500    -0.13600    0.00000    0.12500    0.00300      2        4     5       1
     4   -0.13300   -0.33000    0.13100    -0.13300   -0.33000    0.96400    0.00300     16        6    21       3
     5    0.13300   -0.33000    0.13100     0.13300   -0.33000    0.96400    0.00300     16       22    37       3
     6   -0.13300   -0.33000    0.13100     0.13300   -0.33000    0.13100    0.00300      5       38    42       3
     7   -0.13300   -0.33000    0.96400     0.00000   -0.33000    0.96400    0.00300      2       43    44       3
     8    0.00000   -0.33000    0.96400     0.13300   -0.33000    0.96400    0.00300      3       45    47       3
     9   -0.13600    0.00000    0.00000    -0.13600    0.00000    0.12500    0.00300      2       48    49       2
    10    0.13600    0.00000    0.00000     0.13600    0.00000    0.12500    0.00300      2       50    51       2
    11   -0.13600    0.00000    0.00000     0.13600    0.00000    0.00000    0.00300      5       52    56       2
    12   -0.13600    0.00000    0.97000     0.00000    0.00000    0.97000    0.00300      2       57    58       2
    13    0.13600    0.00000    0.12500     0.13600    0.00000    0.97000    0.00300     16       59    74       2
    14   -0.13600    0.00000    0.12500    -0.13600    0.00000    0.97000    0.00300     16       75    90       2
    15    0.00000    0.00000    0.97000     0.13600    0.00000    0.97000    0.00300      3       91    93       2
    16    0.00000    0.00000    0.97000     0.00000   -0.33000    0.96400    0.00100      6       94    99       4
      THE STRUCTURE HAS BEEN MOVED, MOVE DATA CARD IS -
        0    0   0.00000   0.00000   0.00000   0.00000   0.00000   8.00000   0.00000

   GROUND PLANE SPECIFIED.

   WHERE WIRE ENDS TOUCH GROUND, CURRENT WILL BE INTERPOLATED TO IMAGE IN GROUND PLANE.


   TOTAL SEGMENTS USED=   99     NO. SEG. IN A SYMMETRIC CELL=   99     SYMMETRY FLAG=  0


         - MULTIPLE WIRE JUNCTIONS -
 JUNCTION    SEGMENTS  (- FOR END 1, + FOR END 2)
     1        -1   51  -59
     2         5   49  -75
     3        44  -45   99
     4        58  -91  -94




                                 - - - - SEGMENTATION DATA - - - -

                                        COORDINATES IN METERS

                         I+ AND I- INDICATE THE SEGMENTS BEFORE AND AFTER I


  SEG.   COORDINATES OF SEG. CENTER     SEG.     ORIENTATION ANGLES    WIRE    CONNECTION DATA   TAG
  NO.       X         Y         Z       LENGTH     ALPHA     BETA      RADIUS    I-   I    I+    NO.
     1   0.10850   0.00000   8.12500   0.05500    0.00000 180.00000   0.00300    51    1    2      1
     2   0.05350   0.00000   8.12500   0.05500    0.00000 180.00000   0.00300     1    2    3      1
     3   0.00000   0.00000   8.12500   0.05200    0.00000 180.00000   0.00300     2    3    4    999
     4  -0.05350   0.00000   8.12500   0.05500    0.00000 180.00000   0.00300     3    4    5      1
     5  -0.10850   0.00000   8.12500   0.05500    0.00000 180.00000   0.00300     4    5  -49      1
     6  -0.13300  -0.33000   8.15703   0.05206   90.00000   0.00000   0.00300   -38    6    7      3
     7  -0.13300  -0.33000   8.20909   0.05206   90.00000   0.00000   0.00300     6    7    8      3
     8  -0.13300  -0.33000   8.26116   0.05206   90.00000   0.00000   0.00300     7    8    9      3
     9  -0.13300  -0.33000   8.31322   0.05206   90.00000   0.00000   0.00300     8    9   10      3
    10  -0.13300  -0.33000   8.36528   0.05206   90.00000   0.00000   0.00300     9   10   11      3
    11  -0.13300  -0.33000   8.41734   0.05206   90.00000   0.00000   0.00300    10   11   12      3
    12  -0.13300  -0.33000   8.46941   0.05206   90.00000   0.00000   0.00300    11   12   13      3
    13  -0.13300  -0.33000   8.52147   0.05206   90.00000   0.00000   0.00300    12   13   14      3
    14  -0.13300  -0.33000   8.57353   0.05206   90.00000   0.00000   0.00300    13   14   15      3
    15  -0.13300  -0.33000   8.62559   0.05206   90.00000   0.00000   0.00300    14   15   16      3
    16  -0.13300  -0.33000   8.67766   0.05206   90.00000   0.00000   0.00300    15   16   17      3
    17  -0.13300  -0.33000   8.72972   0.05206   90.00000   0.00000   0.00300    16   17   18      3
    18  -0.13300  -0.33000   8.78178   0.05206   90.00000   0.00000   0.00300    17   18   19      3
    19  -0.13300  -0.33000   8.83384   0.05206   90.00000   0.00000   0.00300    18   19   20      3
    20  -0.13300  -0.33000   8.88591   0.05206   90.00000   0.00000   0.00300    19   20   21      3
    21  -0.13300  -0.33000   8.93797   0.05206   90.00000   0.00000   0.00300    20   21   43      3
    22   0.13300  -0.33000   8.15703   0.05206   90.00000   0.00000   0.00300    42   22   23      3
    23   0.13300  -0.33000   8.20909   0.05206   90.00000   0.00000   0.00300    22   23   24      3
    24   0.13300  -0.33000   8.26116   0.05206   90.00000   0.00000   0.00300    23   24   25      3
    25   0.13300  -0.33000   8.31322   0.05206   90.00000   0.00000   0.00300    24   25   26      3
    26   0.13300  -0.33000   8.36528   0.05206   90.00000   0.00000   0.00300    25   26   27      3
    27   0.13300  -0.33000   8.41734   0.05206   90.00000   0.00000   0.00300    26   27   28      3
    28   0.13300  -0.33000   8.46941   0.05206   90.00000   0.00000   0.00300    27   28   29      3
    29   0.13300  -0.33000   8.52147   0.05206   90.00000   0.00000   0.00300    28   29   30      3
    30   0.13300  -0.33000   8.57353   0.05206   90.00000   0.00000   0.00300    29   30   31      3
    31   0.13300  -0.33000   8.62559   0.05206   90.00000   0.00000   0.00300    30   31   32      3
    32   0.13300  -0.33000   8.67766   0.05206   90.00000   0.00000   0.00300    31   32   33      3
    33   0.13300  -0.33000   8.72972   0.05206   90.00000   0.00000   0.00300    32   33   34      3
    34   0.13300  -0.33000   8.78178   0.05206   90.00000   0.00000   0.00300    33   34   35      3
    35   0.13300  -0.33000   8.83384   0.05206   90.00000   0.00000   0.00300    34   35   36      3
    36   0.13300  -0.33000   8.88591   0.05206   90.00000   0.00000   0.00300    35   36   37      3
    37   0.13300  -0.33000   8.93797   0.05206   90.00000   0.00000   0.00300    36   37  -47      3
    38  -0.10640  -0.33000   8.13100   0.05320    0.00000   0.00000   0.00300    -6   38   39      3
    39  -0.05320  -0.33000   8.13100   0.05320    0.00000   0.00000   0.00300    38   39   40      3
    40   0.00000  -0.33000   8.13100   0.05320    0.00000   0.00000   0.00300    39   40   41      3
    41   0.05320  -0.33000   8.13100   0.05320    0.00000   0.00000   0.00300    40   41   42      3
    42   0.10640  -0.33000   8.13100   0.05320    0.00000   0.00000   0.00300    41   42   22      3
    43  -0.09975  -0.33000   8.96400   0.06650    0.00000   0.00000   0.00300    21   43   44      3
    44  -0.03325  -0.33000   8.96400   0.06650    0.00000   0.00000   0.00300    43   44   45      3
    45   0.02217  -0.33000   8.96400   0.04433    0.00000   0.00000   0.00300    99   45   46      3
    46   0.06650  -0.33000   8.96400   0.04433    0.00000   0.00000   0.00300    45   46   47      3
    47   0.11083  -0.33000   8.96400   0.04433    0.00000   0.00000   0.00300    46   47  -37      3
    48  -0.13600   0.00000   8.03125   0.06250   90.00000   0.00000   0.00300   -52   48   49      2
    49  -0.13600   0.00000   8.09375   0.06250   90.00000   0.00000   0.00300    48   49   75      2
    50   0.13600   0.00000   8.03125   0.06250   90.00000   0.00000   0.00300    56   50   51      2
    51   0.13600   0.00000   8.09375   0.06250   90.00000   0.00000   0.00300    50   51   59      2
    52  -0.10880   0.00000   8.00000   0.05440    0.00000   0.00000   0.00300   -48   52   53      2
    53  -0.05440   0.00000   8.00000   0.05440    0.00000   0.00000   0.00300    52   53   54      2
    54   0.00000   0.00000   8.00000   0.05440    0.00000   0.00000   0.00300    53   54   55      2
    55   0.05440   0.00000   8.00000   0.05440    0.00000   0.00000   0.00300    54   55   56      2
    56   0.10880   0.00000   8.00000   0.05440    0.00000   0.00000   0.00300    55   56   50      2
    57  -0.10200   0.00000   8.97000   0.06800    0.00000   0.00000   0.00300    90   57   58      2
    58  -0.03400   0.00000   8.97000   0.06800    0.00000   0.00000   0.00300    57   58   91      2
    59   0.13600   0.00000   8.15141   0.05281   90.00000   0.00000   0.00300    -1   59   60      2
    60   0.13600   0.00000   8.20422   0.05281   90.00000   0.00000   0.00300    59   60   61      2
    61   0.13600   0.00000   8.25703   0.05281   90.00000   0.00000   0.00300    60   61   62      2
    62   0.13600   0.00000   8.30984   0.05281   90.00000   0.00000   0.00300    61   62   63      2
    63   0.13600   0.00000   8.36266   0.05281   90.00000   0.00000   0.00300    62   63   64      2
    64   0.13600   0.00000   8.41547   0.05281   90.00000   0.00000   0.00300    63   64   65      2
    65   0.13600   0.00000   8.46828   0.05281   90.00000   0.00000   0.00300    64   65   66      2
    66   0.13600   0.00000   8.52109   0.05281   90.00000   0.00000   0.00300    65   66   67      2
    67   0.13600   0.00000   8.57391   0.05281   90.00000   0.00000   0.00300    66   67   68      2
    68   0.13600   0.00000   8.62672   0.05281   90.00000   0.00000   0.00300    67   68   69      2
    69   0.13600   0.00000   8.67953   0.05281   90.00000   0.00000   0.00300    68   69   70      2
    70   0.13600   0.00000   8.73234   0.05281   90.00000   0.00000   0.00300    69   70   71      2
    71   0.13600   0.00000   8.78516   0.05281   90.00000   0.00000   0.00300    70   71   72      2
    72   0.13600   0.00000   8.83797   0.05281   90.00000   0.00000   0.00300    71   72   73      2
    73   0.13600   0.00000   8.89078   0.05281   90.00000   0.00000   0.00300    72   73   74      2
    74   0.13600   0.00000   8.94359   0.05281   90.00000   0.00000   0.00300    73   74  -93      2
    75  -0.13600   0.00000   8.15141   0.05281   90.00000   0.00000   0.00300     5   75   76      2
    76  -0.13600   0.00000   8.20422   0.05281   90.00000   0.00000   0.00300    75   76   77      2
    77  -0.13600   0.00000   8.25703   0.05281   90.00000   0.00000   0.00300    76   77   78      2
    78  -0.13600   0.00000   8.30984   0.05281   90.00000   0.00000   0.00300    77   78   79      2
    79  -0.13600   0.00000   8.36266   0.05281   90.00000   0.00000   0.00300    78   79   80      2
    80  -0.13600   0.00000   8.41547   0.05281   90.00000   0.00000   0.00300    79   80   81      2
    81  -0.13600   0.00000   8.46828   0.05281   90.00000   0.00000   0.00300    80   81   82      2
    82  -0.13600   0.00000   8.52109   0.05281   90.00000   0.00000   0.00300    81   82   83      2
    83  -0.13600   0.00000   8.57391   0.05281   90.00000   0.00000   0.00300    82   83   84      2
    84  -0.13600   0.00000   8.62672   0.05281   90.00000   0.00000   0.00300    83   84   85      2
    85  -0.13600   0.00000   8.67953   0.05281   90.00000   0.00000   0.00300    84   85   86      2
    86  -0.13600   0.00000   8.73234   0.05281   90.00000   0.00000   0.00300    85   86   87      2
    87  -0.13600   0.00000   8.78516   0.05281   90.00000   0.00000   0.00300    86   87   88      2
    88  -0.13600   0.00000   8.83797   0.05281   90.00000   0.00000   0.00300    87   88   89      2
    89  -0.13600   0.00000   8.89078   0.05281   90.00000   0.00000   0.00300    88   89   90      2
    90  -0.13600   0.00000   8.94359   0.05281   90.00000   0.00000   0.00300    89   90   57      2
    91   0.02267   0.00000   8.97000   0.04533    0.00000   0.00000   0.00300   -94   91   92      2
    92   0.06800   0.00000   8.97000   0.04533    0.00000   0.00000   0.00300    91   92   93      2
    93   0.11333   0.00000   8.97000   0.04533    0.00000   0.00000   0.00300    92   93  -74      2
    94   0.00000  -0.02750   8.96950   0.05501   -1.04163 -90.00000   0.00100    58   94   95      4
    95   0.00000  -0.08250   8.96850   0.05501   -1.04163 -90.00000   0.00100    94   95   96      4
    96   0.00000  -0.13750   8.96750   0.05501   -1.04163 -90.00000   0.00100    95   96   97      4
    97   0.00000  -0.19250   8.96650   0.05501   -1.04163 -90.00000   0.00100    96   97   98      4
    98   0.00000  -0.24750   8.96550   0.05501   -1.04163 -90.00000   0.00100    97   98   99      4
    99   0.00000  -0.30250   8.96450   0.05501   -1.04163 -90.00000   0.00100    98   99  -44      4






 ***** DATA CARD NO.  1   GN   2     0     0     0  1.10000E+01  1.00000E-02  0.00000E+00  0.00000E+00  0.00000E+00  0.00000E+00
 ***** DATA CARD NO.  2   LD   5     0     0     0  5.80000E+07  0.00000E+00  0.00000E+00  0.00000E+00  0.00000E+00  0.00000E+00
 ***** DATA CARD NO.  3   EX   0   999     1     0  1.00000E+00  0.00000E+00  0.00000E+00  0.00000E+00  0.00000E+00  0.00000E+00
 ***** DATA CARD NO.  4   FR   0     1     0     0  1.44200E+02  0.00000E+00  0.00000E+00  0.00000E+00  0.00000E+00  0.00000E+00
 ***** DATA CARD NO.  5   RP   0     1     1  1000  8.50000E+01  9.00000E+01  0.00000E+00  0.00000E+00  0.00000E+00  0.00000E+00




                                 - - - - - - FREQUENCY - - - - - -

                                    FREQUENCY= 1.4420E+02 MHZ
                                    WAVELENGTH= 2.0791E+00 METERS




                    APPROXIMATE INTEGRATION EMPLOYED FOR SEGMENTS MORE THAN   1.000 WAVELENGTHS APART



                               - - - STRUCTURE IMPEDANCE LOADING - - -


       LOCATION          RESISTANCE   INDUCTANCE  CAPACITANCE       IMPEDANCE (OHMS)     CONDUCTIVITY    TYPE
    ITAG FROM THRU          OHMS        HENRYS       FARADS        REAL      IMAGINARY    MHOS/METER

     ALL                                                                                 5.8000E+07     WIRE  



                                  - - - ANTENNA ENVIRONMENT - - -

                                        FINITE GROUND.  SOMMERFELD SOLUTION
                                        RELATIVE DIELECTRIC CONST.= 11.000
                                        CONDUCTIVITY= 1.000E-02 MHOS/METER
                                        COMPLEX DIELECTRIC CONSTANT= 1.10000E+01-1.24660E+00



                                - - - MATRIX TIMING - - -

                        FILL=    0.031 SEC.,  FACTOR=    0.000 SEC.



                                          - - - ANTENNA INPUT PARAMETERS - - -

   TAG   SEG.    VOLTAGE (VOLTS)         CURRENT (AMPS)         IMPEDANCE (OHMS)        ADMITTANCE (MHOS)      POWER
   NO.   NO.    REAL        IMAG.       REAL        IMAG.       REAL        IMAG.       REAL        IMAG.     (WATTS)
   999     3 1.00000E+00 0.00000E+00 3.17203E-02 9.77572E-03 2.87911E+01-8.87298E+00 3.17203E-02 9.77572E-03 1.58601E-02



                             - - - CURRENTS AND LOCATION - - -

                                 DISTANCES IN WAVELENGTHS


  SEG.  TAG    COORD. OF SEG. CENTER     SEG.            - - - CURRENT (AMPS) - - -
  NO.   NO.     X        Y        Z      LENGTH     REAL        IMAG.       MAG.        PHASE
     1    1   0.0522   0.0000   3.9080  0.02645   3.0460E-02  8.7728E-03  3.1698E-02   16.067
     2    1   0.0257   0.0000   3.9080  0.02645   3.1395E-02  9.3373E-03  3.2754E-02   16.563
     3  999   0.0000   0.0000   3.9080  0.02501   3.1720E-02  9.7757E-03  3.3192E-02   17.129
     4    1  -0.0257   0.0000   3.9080  0.02645   3.1395E-02  9.3375E-03  3.2754E-02   16.563
     5    1  -0.0522   0.0000   3.9080  0.02645   3.0459E-02  8.7732E-03  3.1698E-02   16.068
     6    3  -0.0640  -0.1587   3.9234  0.02504  -4.1086E-02 -3.7263E-03  4.1255E-02 -174.818
     7    3  -0.0640  -0.1587   3.9485  0.02504  -3.7870E-02 -3.4262E-03  3.8025E-02 -174.830
     8    3  -0.0640  -0.1587   3.9735  0.02504  -3.3758E-02 -3.0425E-03  3.3895E-02 -174.850
     9    3  -0.0640  -0.1587   3.9986  0.02504  -2.8837E-02 -2.5838E-03  2.8952E-02 -174.880
    10    3  -0.0640  -0.1587   4.0236  0.02504  -2.3220E-02 -2.0611E-03  2.3311E-02 -174.928
    11    3  -0.0640  -0.1587   4.0486  0.02504  -1.7041E-02 -1.4869E-03  1.7106E-02 -175.013
    12    3  -0.0640  -0.1587   4.0737  0.02504  -1.0449E-02 -8.7529E-04  1.0486E-02 -175.212
    13    3  -0.0640  -0.1587   4.0987  0.02504  -3.6048E-03 -2.4131E-04  3.6128E-03 -176.170
    14    3  -0.0640  -0.1587   4.1238  0.02504   3.3256E-03  3.9936E-04  3.3495E-03    6.848
    15    3  -0.0640  -0.1587   4.1488  0.02504   1.0172E-02  1.0308E-03  1.0224E-02    5.786
    16    3  -0.0640  -0.1587   4.1738  0.02504   1.6768E-02  1.6374E-03  1.6848E-02    5.577
    17    3  -0.0640  -0.1587   4.1989  0.02504   2.2951E-02  2.2039E-03  2.3057E-02    5.485
    18    3  -0.0640  -0.1587   4.2239  0.02504   2.8573E-02  2.7164E-03  2.8702E-02    5.431
    19    3  -0.0640  -0.1587   4.2490  0.02504   3.3499E-02  3.1620E-03  3.3648E-02    5.392
    20    3  -0.0640  -0.1587   4.2740  0.02504   3.7615E-02  3.5299E-03  3.7780E-02    5.361
    21    3  -0.0640  -0.1587   4.2990  0.02504   4.0832E-02  3.8114E-03  4.1009E-02    5.333
    22    3   0.0640  -0.1587   3.9234  0.02504   4.1087E-02  3.7252E-03  4.1255E-02    5.181
    23    3   0.0640  -0.1587   3.9485  0.02504   3.7871E-02  3.4247E-03  3.8025E-02    5.167
    24    3   0.0640  -0.1587   3.9735  0.02504   3.3758E-02  3.0407E-03  3.3895E-02    5.147
    25    3   0.0640  -0.1587   3.9986  0.02504   2.8837E-02  2.5818E-03  2.8953E-02    5.116
    26    3   0.0640  -0.1587   4.0236  0.02504   2.3221E-02  2.0589E-03  2.3312E-02    5.067
    27    3   0.0640  -0.1587   4.0486  0.02504   1.7042E-02  1.4846E-03  1.7107E-02    4.979
    28    3   0.0640  -0.1587   4.0737  0.02504   1.0451E-02  8.7292E-04  1.0487E-02    4.775
    29    3   0.0640  -0.1587   4.0987  0.02504   3.6059E-03  2.3893E-04  3.6138E-03    3.791
    30    3   0.0640  -0.1587   4.1238  0.02504  -3.3244E-03 -4.0168E-04  3.3486E-03 -173.110
    31    3   0.0640  -0.1587   4.1488  0.02504  -1.0171E-02 -1.0330E-03  1.0223E-02 -174.201
    32    3   0.0640  -0.1587   4.1738  0.02504  -1.6767E-02 -1.6394E-03  1.6847E-02 -174.415
    33    3   0.0640  -0.1587   4.1989  0.02504  -2.2950E-02 -2.2057E-03  2.3056E-02 -174.510
    34    3   0.0640  -0.1587   4.2239  0.02504  -2.8572E-02 -2.7179E-03  2.8701E-02 -174.566
    35    3   0.0640  -0.1587   4.2490  0.02504  -3.3498E-02 -3.1632E-03  3.3647E-02 -174.606
    36    3   0.0640  -0.1587   4.2740  0.02504  -3.7614E-02 -3.5307E-03  3.7779E-02 -174.638
    37    3   0.0640  -0.1587   4.2990  0.02504  -4.0830E-02 -3.8117E-03  4.1008E-02 -174.667
