1



                                 *********************************************

                                    NUMERICAL ELECTROMAGNETICS CODE (NEC-2D)

                                 *********************************************




                                     - - - - COMMENTS - - - -


                          No comments specified                                                      
                                                                                                     




                                 - - - STRUCTURE SPECIFICATION - - -

                                     COORDINATES MUST BE INPUT IN
                                     METERS OR BE SCALED TO METERS
                                     BEFORE STRUCTURE INPUT IS ENDED


  WIRE                                                                               NO. OF    FIRST  LAST     TAG
  NO.        X1         Y1         Z1          X2         Y2         Z2      RADIUS   SEG.     SEG.   SEG.     NO.
     1    0.36400    0.25900    0.00000     0.05200    0.25900    0.00000    0.00486      6        1     6       1
     2    0.05200    0.25900    0.00000     0.00000    0.25900    0.00000    0.00486      1        7     7     999
     3    0.00000    0.25900    0.00000    -0.36400    0.25900    0.00000    0.00486      6        8    13       1
     4   -0.36400    0.16000    0.00000    -0.36400    0.25900    0.00000    0.00486      2       14    15       2
     5    0.36400    0.16000    0.00000     0.36400    0.25900    0.00000    0.00486      2       16    17       3
     6    0.36400    0.00000    0.00000    -0.36400    0.00000    0.00000    0.00486     14       18    31       4
     7   -0.36400    0.00000    0.00000    -0.36400    0.13300    0.00000    0.00486      3       32    34       5
     8    0.36400    0.00000    0.00000     0.36400    0.13300    0.00000    0.00486      3       35    37       6
      THE STRUCTURE HAS BEEN MOVED, MOVE DATA CARD IS -
        0    0   0.00000   0.00000   0.00000   0.00000   0.00000   8.00000   0.00000

   GROUND PLANE SPECIFIED.

   WHERE WIRE ENDS TOUCH GROUND, CURRENT WILL BE INTERPOLATED TO IMAGE IN GROUND PLANE.


   TOTAL SEGMENTS USED=   37     NO. SEG. IN A SYMMETRIC CELL=   37     SYMMETRY FLAG=  0


         - MULTIPLE WIRE JUNCTIONS -
 JUNCTION    SEGMENTS  (- FOR END 1, + FOR END 2)
  NONE




                                 - - - - SEGMENTATION DATA - - - -

                                        COORDINATES IN METERS

                         I+ AND I- INDICATE THE SEGMENTS BEFORE AND AFTER I


  SEG.   COORDINATES OF SEG. CENTER     SEG.     ORIENTATION ANGLES    WIRE    CONNECTION DATA   TAG
  NO.       X         Y         Z       LENGTH     ALPHA     BETA      RADIUS    I-   I    I+    NO.
     1   0.33800   0.25900   8.00000   0.05200    0.00000 180.00000   0.00486    17    1    2      1
     2   0.28600   0.25900   8.00000   0.05200    0.00000 180.00000   0.00486     1    2    3      1
     3   0.23400   0.25900   8.00000   0.05200    0.00000 180.00000   0.00486     2    3    4      1
     4   0.18200   0.25900   8.00000   0.05200    0.00000 180.00000   0.00486     3    4    5      1
     5   0.13000   0.25900   8.00000   0.05200    0.00000 180.00000   0.00486     4    5    6      1
     6   0.07800   0.25900   8.00000   0.05200    0.00000 180.00000   0.00486     5    6    7      1
     7   0.02600   0.25900   8.00000   0.05200    0.00000 180.00000   0.00486     6    7    8    999
     8  -0.03033   0.25900   8.00000   0.06067    0.00000 180.00000   0.00486     7    8    9      1
     9  -0.09100   0.25900   8.00000   0.06067    0.00000 180.00000   0.00486     8    9   10      1
    10  -0.15167   0.25900   8.00000   0.06067    0.00000 180.00000   0.00486     9   10   11      1
    11  -0.21233   0.25900   8.00000   0.06067    0.00000 180.00000   0.00486    10   11   12      1
    12  -0.27300   0.25900   8.00000   0.06067    0.00000 180.00000   0.00486    11   12   13      1
    13  -0.33367   0.25900   8.00000   0.06067    0.00000 180.00000   0.00486    12   13  -15      1
    14  -0.36400   0.18475   8.00000   0.04950    0.00000  90.00000   0.00486     0   14   15      2
    15  -0.36400   0.23425   8.00000   0.04950    0.00000  90.00000   0.00486    14   15  -13      2
    16   0.36400   0.18475   8.00000   0.04950    0.00000  90.00000   0.00486     0   16   17      3
    17   0.36400   0.23425   8.00000   0.04950    0.00000  90.00000   0.00486    16   17    1      3
    18   0.33800   0.00000   8.00000   0.05200    0.00000 180.00000   0.00486   -35   18   19      4
    19   0.28600   0.00000   8.00000   0.05200    0.00000 180.00000   0.00486    18   19   20      4
    20   0.23400   0.00000   8.00000   0.05200    0.00000 180.00000   0.00486    19   20   21      4
    21   0.18200   0.00000   8.00000   0.05200    0.00000 180.00000   0.00486    20   21   22      4
    22   0.13000   0.00000   8.00000   0.05200    0.00000 180.00000   0.00486    21   22   23      4
    23   0.07800   0.00000   8.00000   0.05200    0.00000 180.00000   0.00486    22   23   24      4
    24   0.02600   0.00000   8.00000   0.05200    0.00000 180.00000   0.00486    23   24   25      4
    25  -0.02600   0.00000   8.00000   0.05200    0.00000 180.00000   0.00486    24   25   26      4
    26  -0.07800   0.00000   8.00000   0.05200    0.00000 180.00000   0.00486    25   26   27      4
    27  -0.13000   0.00000   8.00000   0.05200    0.00000 180.00000   0.00486    26   27   28      4
    28  -0.18200   0.00000   8.00000   0.05200    0.00000 180.00000   0.00486    27   28   29      4
    29  -0.23400   0.00000   8.00000   0.05200    0.00000 180.00000   0.00486    28   29   30      4
    30  -0.28600   0.00000   8.00000   0.05200    0.00000 180.00000   0.00486    29   30   31      4
    31  -0.33800   0.00000   8.00000   0.05200    0.00000 180.00000   0.00486    30   31   32      4
    32  -0.36400   0.02217   8.00000   0.04433    0.00000  90.00000   0.00486    31   32   33      5
    33  -0.36400   0.06650   8.00000   0.04433    0.00000  90.00000   0.00486    32   33   34      5
    34  -0.36400   0.11083   8.00000   0.04433    0.00000  90.00000   0.00486    33   34    0      5
    35   0.36400   0.02217   8.00000   0.04433    0.00000  90.00000   0.00486   -18   35   36      6
    36   0.36400   0.06650   8.00000   0.04433    0.00000  90.00000   0.00486    35   36   37      6
    37   0.36400   0.11083   8.00000   0.04433    0.00000  90.00000   0.00486    36   37    0      6






 ***** DATA CARD NO.  1   GN   2     0     0     0  1.10000E+01  1.00000E-02  0.00000E+00  0.00000E+00  0.00000E+00  0.00000E+00
 ***** DATA CARD NO.  2   EK   0     0     0     0  0.00000E+00  0.00000E+00  0.00000E+00  0.00000E+00  0.00000E+00  0.00000E+00
 ***** DATA CARD NO.  3   LD   5     0     0     0  5.80000E+07  0.00000E+00  0.00000E+00  0.00000E+00  0.00000E+00  0.00000E+00
 ***** DATA CARD NO.  4   EX   0   999     1     0  1.00000E+00  0.00000E+00  0.00000E+00  0.00000E+00  0.00000E+00  0.00000E+00
 ***** DATA CARD NO.  5   FR   0     1     0     0  1.44200E+02  0.00000E+00  0.00000E+00  0.00000E+00  0.00000E+00  0.00000E+00
 ***** DATA CARD NO.  6   RP   0     1     1  1000  8.70000E+01  9.00000E+01  0.00000E+00  0.00000E+00  0.00000E+00  0.00000E+00




                                 - - - - - - FREQUENCY - - - - - -

                                    FREQUENCY= 1.4420E+02 MHZ
                                    WAVELENGTH= 2.0791E+00 METERS




                    APPROXIMATE INTEGRATION EMPLOYED FOR SEGMENTS MORE THAN   1.000 WAVELENGTHS APART

                    THE EXTENDED THIN WIRE KERNEL WILL BE USED



                               - - - STRUCTURE IMPEDANCE LOADING - - -


       LOCATION          RESISTANCE   INDUCTANCE  CAPACITANCE       IMPEDANCE (OHMS)     CONDUCTIVITY    TYPE
    ITAG FROM THRU          OHMS        HENRYS       FARADS        REAL      IMAGINARY    MHOS/METER

     ALL                                                                                 5.8000E+07     WIRE  



                                  - - - ANTENNA ENVIRONMENT - - -

                                        FINITE GROUND.  SOMMERFELD SOLUTION
                                        RELATIVE DIELECTRIC CONST.= 11.000
                                        CONDUCTIVITY= 1.000E-02 MHOS/METER
                                        COMPLEX DIELECTRIC CONSTANT= 1.10000E+01-1.24660E+00



                                - - - MATRIX TIMING - - -

                        FILL=    0.016 SEC.,  FACTOR=    0.000 SEC.



                                          - - - ANTENNA INPUT PARAMETERS - - -

   TAG   SEG.    VOLTAGE (VOLTS)         CURRENT (AMPS)         IMPEDANCE (OHMS)        ADMITTANCE (MHOS)      POWER
   NO.   NO.    REAL        IMAG.       REAL        IMAG.       REAL        IMAG.       REAL        IMAG.     (WATTS)
   999     7 1.00000E+00 0.00000E+00 3.03622E-02-4.24110E-03 3.23054E+01 4.51253E+00 3.03622E-02-4.24110E-03 1.51811E-02



                             - - - CURRENTS AND LOCATION - - -

                                 DISTANCES IN WAVELENGTHS


  SEG.  TAG    COORD. OF SEG. CENTER     SEG.            - - - CURRENT (AMPS) - - -
  NO.   NO.     X        Y        Z      LENGTH     REAL        IMAG.       MAG.        PHASE
     1    1   0.1626   0.1246   3.8479  0.02501   1.4678E-02 -3.1073E-03  1.5004E-02  -11.953
     2    1   0.1376   0.1246   3.8479  0.02501   1.8830E-02 -3.6875E-03  1.9187E-02  -11.080
     3    1   0.1126   0.1246   3.8479  0.02501   2.2519E-02 -4.1615E-03  2.2901E-02  -10.470
     4    1   0.0875   0.1246   3.8479  0.02501   2.5588E-02 -4.4783E-03  2.5977E-02   -9.927
     5    1   0.0625   0.1246   3.8479  0.02501   2.7950E-02 -4.6118E-03  2.8328E-02   -9.369
     6    1   0.0375   0.1246   3.8479  0.02501   2.9553E-02 -4.5186E-03  2.9897E-02   -8.693
     7  999   0.0125   0.1246   3.8479  0.02501   3.0362E-02 -4.2411E-03  3.0657E-02   -7.952
     8    1  -0.0146   0.1246   3.8479  0.02918   3.0324E-02 -4.7016E-03  3.0687E-02   -8.813
     9    1  -0.0438   0.1246   3.8479  0.02918   2.9222E-02 -4.9446E-03  2.9637E-02   -9.604
    10    1  -0.0729   0.1246   3.8479  0.02918   2.7050E-02 -4.8829E-03  2.7487E-02  -10.233
    11    1  -0.1021   0.1246   3.8479  0.02918   2.3871E-02 -4.5639E-03  2.4303E-02  -10.824
    12    1  -0.1313   0.1246   3.8479  0.02918   1.9793E-02 -4.0161E-03  2.0197E-02  -11.470
    13    1  -0.1605   0.1246   3.8479  0.02918   1.5025E-02 -3.3024E-03  1.5384E-02  -12.396
    14    2  -0.1751   0.0889   3.8479  0.02381  -4.7572E-03  1.3580E-03  4.9472E-03  164.068
    15    2  -0.1751   0.1127   3.8479  0.02381  -1.0300E-02  2.5666E-03  1.0615E-02  166.009
    16    3   0.1751   0.0889   3.8479  0.02381   4.7598E-03 -1.3163E-03  4.9384E-03  -15.459
    17    3   0.1751   0.1127   3.8479  0.02381   1.0306E-02 -2.4709E-03  1.0598E-02  -13.482
    18    4   0.1626   0.0000   3.8479  0.02501  -1.3939E-02  1.0957E-02  1.7730E-02  141.830
    19    4   0.1376   0.0000   3.8479  0.02501  -1.6765E-02  1.3443E-02  2.1489E-02  141.276
    20    4   0.1126   0.0000   3.8479  0.02501  -1.9320E-02  1.5646E-02  2.4860E-02  140.998
    21    4   0.0875   0.0000   3.8479  0.02501  -2.1474E-02  1.7485E-02  2.7693E-02  140.847
    22    4   0.0625   0.0000   3.8479  0.02501  -2.3149E-02  1.8906E-02  2.9889E-02  140.761
    23    4   0.0375   0.0000   3.8479  0.02501  -2.4292E-02  1.9874E-02  3.1386E-02  140.713
    24    4   0.0125   0.0000   3.8479  0.02501  -2.4872E-02  2.0366E-02  3.2146E-02  140.688
    25    4  -0.0125   0.0000   3.8479  0.02501  -2.4872E-02  2.0370E-02  3.2149E-02  140.682
    26    4  -0.0375   0.0000   3.8479  0.02501  -2.4292E-02  1.9886E-02  3.1394E-02  140.695
    27    4  -0.0625   0.0000   3.8479  0.02501  -2.3149E-02  1.8925E-02  2.9900E-02  140.733
    28    4  -0.0875   0.0000   3.8479  0.02501  -2.1474E-02  1.7508E-02  2.7707E-02  140.810
    29    4  -0.1126   0.0000   3.8479  0.02501  -1.9319E-02  1.5671E-02  2.4876E-02  140.953
    30    4  -0.1376   0.0000   3.8479  0.02501  -1.6765E-02  1.3468E-02  2.1504E-02  141.223
    31    4  -0.1626   0.0000   3.8479  0.02501  -1.3938E-02  1.0982E-02  1.7745E-02  141.766
    32    5  -0.1751   0.0107   3.8479  0.02132  -1.1157E-02  8.4808E-03  1.4014E-02  142.759
    33    5  -0.1751   0.0320   3.8479  0.02132  -8.0674E-03  5.8668E-03  9.9750E-03  143.975
    34    5  -0.1751   0.0533   3.8479  0.02132  -3.8568E-03  2.6369E-03  4.6720E-03  145.639
    35    6   0.1751   0.0107   3.8479  0.02132   1.1157E-02 -8.4573E-03  1.4000E-02  -37.163
    36    6   0.1751   0.0320   3.8479  0.02132   8.0681E-03 -5.8464E-03  9.9637E-03  -35.928
    37    6   0.1751   0.0533   3.8479  0.02132   3.8573E-03 -2.6249E-03  4.6657E-03  -34.236



                                        - - - POWER BUDGET - - -

                                           INPUT POWER   = 1.5181E-02 WATTS
                                           RADIATED POWER= 1.5128E-02 WATTS
                                           STRUCTURE LOSS= 5.2909E-05 WATTS
                                           NETWORK LOSS  = 0.0000E+00 WATTS
                                           EFFICIENCY    =  99.65 PERCENT



                                                - - - RADIATION PATTERNS - - -

  - - ANGLES - -           - POWER GAINS -       - - - POLARIZATION - - -    - - - E(THETA) - - -    - - - E(PHI) - - -
  THETA     PHI        VERT.   HOR.    TOTAL      AXIAL     TILT   SENSE     MAGNITUDE    PHASE      MAGNITUDE    PHASE 
 DEGREES  DEGREES       DB      DB      DB        RATIO     DEG.              VOLTS/M    DEGREES      VOLTS/M    DEGREES
   87.00    90.00     -91.48   12.00   12.00    0.00000    90.00  LINEAR    2.54354E-05    57.66    3.79864E+00    90.33






 ***** DATA CARD NO.  7   EN   0     1     1  1000  8.70000E+01  9.00000E+01  0.00000E+00  0.00000E+00  0.00000E+00  0.00000E+00

 RUN TIME =     0.094
