1



                                 *********************************************

                                    NUMERICAL ELECTROMAGNETICS CODE (NEC-2D)

                                 *********************************************




                                     - - - - COMMENTS - - - -


                          No comments specified                                                      
                                                                                                     




                                 - - - STRUCTURE SPECIFICATION - - -

                                     COORDINATES MUST BE INPUT IN
                                     METERS OR BE SCALED TO METERS
                                     BEFORE STRUCTURE INPUT IS ENDED


  WIRE                                                                               NO. OF    FIRST  LAST     TAG
  NO.        X1         Y1         Z1          X2         Y2         Z2      RADIUS   SEG.     SEG.   SEG.     NO.
     1    0.13700    0.00000    0.12500     0.02600    0.00000    0.12500    0.00300      2        1     2       1
     2    0.02600    0.00000    0.12500    -0.02600    0.00000    0.12500    0.00300      1        3     3     999
     3   -0.02600    0.00000    0.12500    -0.13700    0.00000    0.12500    0.00300      2        4     5       1
     4   -0.13200   -0.24200    0.14200    -0.13200   -0.24200    0.95300    0.00300     15        6    20       3
     5    0.13200   -0.24200    0.14200     0.13200   -0.24200    0.95300    0.00300     15       21    35       3
     6   -0.13200   -0.24200    0.14200     0.13200   -0.24200    0.14200    0.00300      5       36    40       3
     7   -0.13200   -0.24200    0.95300     0.00000   -0.24200    0.95300    0.00300      2       41    42       3
     8    0.00000   -0.24200    0.95300     0.13200   -0.24200    0.95300    0.00300      3       43    45       3
     9   -0.13700    0.00000    0.00000    -0.13700    0.00000    0.12500    0.00300      2       46    47       2
    10    0.13700    0.00000    0.00000     0.13700    0.00000    0.12500    0.00300      2       48    49       2
    11   -0.13700    0.00000    0.00000     0.13700    0.00000    0.00000    0.00300      5       50    54       2
    12   -0.13700    0.00000    0.97000     0.00000    0.00000    0.97000    0.00300      2       55    56       2
    13    0.13700    0.00000    0.12500     0.13700    0.00000    0.97000    0.00300     16       57    72       2
    14   -0.13700    0.00000    0.12500    -0.13700    0.00000    0.97000    0.00300     16       73    88       2
    15    0.00000    0.00000    0.97000     0.13700    0.00000    0.97000    0.00300      3       89    91       2
    16    0.00000    0.00000    0.97000     0.00000   -0.24200    0.95300    0.00100      1       92    92       4
      THE STRUCTURE HAS BEEN MOVED, MOVE DATA CARD IS -
        0    0   0.00000   0.00000   0.00000   0.00000   0.00000   8.00000   0.00000

   GROUND PLANE SPECIFIED.

   WHERE WIRE ENDS TOUCH GROUND, CURRENT WILL BE INTERPOLATED TO IMAGE IN GROUND PLANE.


   TOTAL SEGMENTS USED=   92     NO. SEG. IN A SYMMETRIC CELL=   92     SYMMETRY FLAG=  0


         - MULTIPLE WIRE JUNCTIONS -
 JUNCTION    SEGMENTS  (- FOR END 1, + FOR END 2)
     1        -1   49  -57
     2         5   47  -73
     3        42  -43   92
     4        56  -89  -92




                                 - - - - SEGMENTATION DATA - - - -

                                        COORDINATES IN METERS

                         I+ AND I- INDICATE THE SEGMENTS BEFORE AND AFTER I


  SEG.   COORDINATES OF SEG. CENTER     SEG.     ORIENTATION ANGLES    WIRE    CONNECTION DATA   TAG
  NO.       X         Y         Z       LENGTH     ALPHA     BETA      RADIUS    I-   I    I+    NO.
     1   0.10925   0.00000   8.12500   0.05550    0.00000 180.00000   0.00300    49    1    2      1
     2   0.05375   0.00000   8.12500   0.05550    0.00000 180.00000   0.00300     1    2    3      1
     3   0.00000   0.00000   8.12500   0.05200    0.00000 180.00000   0.00300     2    3    4    999
     4  -0.05375   0.00000   8.12500   0.05550    0.00000 180.00000   0.00300     3    4    5      1
     5  -0.10925   0.00000   8.12500   0.05550    0.00000 180.00000   0.00300     4    5  -47      1
     6  -0.13200  -0.24200   8.16903   0.05407   90.00000   0.00000   0.00300   -36    6    7      3
     7  -0.13200  -0.24200   8.22310   0.05407   90.00000   0.00000   0.00300     6    7    8      3
     8  -0.13200  -0.24200   8.27717   0.05407   90.00000   0.00000   0.00300     7    8    9      3
     9  -0.13200  -0.24200   8.33123   0.05407   90.00000   0.00000   0.00300     8    9   10      3
    10  -0.13200  -0.24200   8.38530   0.05407   90.00000   0.00000   0.00300     9   10   11      3
    11  -0.13200  -0.24200   8.43937   0.05407   90.00000   0.00000   0.00300    10   11   12      3
    12  -0.13200  -0.24200   8.49343   0.05407   90.00000   0.00000   0.00300    11   12   13      3
    13  -0.13200  -0.24200   8.54750   0.05407   90.00000   0.00000   0.00300    12   13   14      3
    14  -0.13200  -0.24200   8.60157   0.05407   90.00000   0.00000   0.00300    13   14   15      3
    15  -0.13200  -0.24200   8.65563   0.05407   90.00000   0.00000   0.00300    14   15   16      3
    16  -0.13200  -0.24200   8.70970   0.05407   90.00000   0.00000   0.00300    15   16   17      3
    17  -0.13200  -0.24200   8.76377   0.05407   90.00000   0.00000   0.00300    16   17   18      3
    18  -0.13200  -0.24200   8.81783   0.05407   90.00000   0.00000   0.00300    17   18   19      3
    19  -0.13200  -0.24200   8.87190   0.05407   90.00000   0.00000   0.00300    18   19   20      3
    20  -0.13200  -0.24200   8.92597   0.05407   90.00000   0.00000   0.00300    19   20   41      3
    21   0.13200  -0.24200   8.16903   0.05407   90.00000   0.00000   0.00300    40   21   22      3
    22   0.13200  -0.24200   8.22310   0.05407   90.00000   0.00000   0.00300    21   22   23      3
    23   0.13200  -0.24200   8.27717   0.05407   90.00000   0.00000   0.00300    22   23   24      3
    24   0.13200  -0.24200   8.33123   0.05407   90.00000   0.00000   0.00300    23   24   25      3
    25   0.13200  -0.24200   8.38530   0.05407   90.00000   0.00000   0.00300    24   25   26      3
    26   0.13200  -0.24200   8.43937   0.05407   90.00000   0.00000   0.00300    25   26   27      3
    27   0.13200  -0.24200   8.49343   0.05407   90.00000   0.00000   0.00300    26   27   28      3
    28   0.13200  -0.24200   8.54750   0.05407   90.00000   0.00000   0.00300    27   28   29      3
    29   0.13200  -0.24200   8.60157   0.05407   90.00000   0.00000   0.00300    28   29   30      3
    30   0.13200  -0.24200   8.65563   0.05407   90.00000   0.00000   0.00300    29   30   31      3
    31   0.13200  -0.24200   8.70970   0.05407   90.00000   0.00000   0.00300    30   31   32      3
    32   0.13200  -0.24200   8.76377   0.05407   90.00000   0.00000   0.00300    31   32   33      3
    33   0.13200  -0.24200   8.81783   0.05407   90.00000   0.00000   0.00300    32   33   34      3
    34   0.13200  -0.24200   8.87190   0.05407   90.00000   0.00000   0.00300    33   34   35      3
    35   0.13200  -0.24200   8.92597   0.05407   90.00000   0.00000   0.00300    34   35  -45      3
    36  -0.10560  -0.24200   8.14200   0.05280    0.00000   0.00000   0.00300    -6   36   37      3
    37  -0.05280  -0.24200   8.14200   0.05280    0.00000   0.00000   0.00300    36   37   38      3
    38   0.00000  -0.24200   8.14200   0.05280    0.00000   0.00000   0.00300    37   38   39      3
    39   0.05280  -0.24200   8.14200   0.05280    0.00000   0.00000   0.00300    38   39   40      3
    40   0.10560  -0.24200   8.14200   0.05280    0.00000   0.00000   0.00300    39   40   21      3
    41  -0.09900  -0.24200   8.95300   0.06600    0.00000   0.00000   0.00300    20   41   42      3
    42  -0.03300  -0.24200   8.95300   0.06600    0.00000   0.00000   0.00300    41   42   43      3
    43   0.02200  -0.24200   8.95300   0.04400    0.00000   0.00000   0.00300    92   43   44      3
    44   0.06600  -0.24200   8.95300   0.04400    0.00000   0.00000   0.00300    43   44   45      3
    45   0.11000  -0.24200   8.95300   0.04400    0.00000   0.00000   0.00300    44   45  -35      3
    46  -0.13700   0.00000   8.03125   0.06250   90.00000   0.00000   0.00300   -50   46   47      2
    47  -0.13700   0.00000   8.09375   0.06250   90.00000   0.00000   0.00300    46   47   73      2
    48   0.13700   0.00000   8.03125   0.06250   90.00000   0.00000   0.00300    54   48   49      2
    49   0.13700   0.00000   8.09375   0.06250   90.00000   0.00000   0.00300    48   49   57      2
    50  -0.10960   0.00000   8.00000   0.05480    0.00000   0.00000   0.00300   -46   50   51      2
    51  -0.05480   0.00000   8.00000   0.05480    0.00000   0.00000   0.00300    50   51   52      2
    52   0.00000   0.00000   8.00000   0.05480    0.00000   0.00000   0.00300    51   52   53      2
    53   0.05480   0.00000   8.00000   0.05480    0.00000   0.00000   0.00300    52   53   54      2
    54   0.10960   0.00000   8.00000   0.05480    0.00000   0.00000   0.00300    53   54   48      2
    55  -0.10275   0.00000   8.97000   0.06850    0.00000   0.00000   0.00300    88   55   56      2
    56  -0.03425   0.00000   8.97000   0.06850    0.00000   0.00000   0.00300    55   56   89      2
    57   0.13700   0.00000   8.15141   0.05281   90.00000   0.00000   0.00300    -1   57   58      2
    58   0.13700   0.00000   8.20422   0.05281   90.00000   0.00000   0.00300    57   58   59      2
    59   0.13700   0.00000   8.25703   0.05281   90.00000   0.00000   0.00300    58   59   60      2
    60   0.13700   0.00000   8.30984   0.05281   90.00000   0.00000   0.00300    59   60   61      2
    61   0.13700   0.00000   8.36266   0.05281   90.00000   0.00000   0.00300    60   61   62      2
    62   0.13700   0.00000   8.41547   0.05281   90.00000   0.00000   0.00300    61   62   63      2
    63   0.13700   0.00000   8.46828   0.05281   90.00000   0.00000   0.00300    62   63   64      2
    64   0.13700   0.00000   8.52109   0.05281   90.00000   0.00000   0.00300    63   64   65      2
    65   0.13700   0.00000   8.57391   0.05281   90.00000   0.00000   0.00300    64   65   66      2
    66   0.13700   0.00000   8.62672   0.05281   90.00000   0.00000   0.00300    65   66   67      2
    67   0.13700   0.00000   8.67953   0.05281   90.00000   0.00000   0.00300    66   67   68      2
    68   0.13700   0.00000   8.73234   0.05281   90.00000   0.00000   0.00300    67   68   69      2
    69   0.13700   0.00000   8.78516   0.05281   90.00000   0.00000   0.00300    68   69   70      2
    70   0.13700   0.00000   8.83797   0.05281   90.00000   0.00000   0.00300    69   70   71      2
    71   0.13700   0.00000   8.89078   0.05281   90.00000   0.00000   0.00300    70   71   72      2
    72   0.13700   0.00000   8.94359   0.05281   90.00000   0.00000   0.00300    71   72  -91      2
    73  -0.13700   0.00000   8.15141   0.05281   90.00000   0.00000   0.00300     5   73   74      2
    74  -0.13700   0.00000   8.20422   0.05281   90.00000   0.00000   0.00300    73   74   75      2
    75  -0.13700   0.00000   8.25703   0.05281   90.00000   0.00000   0.00300    74   75   76      2
    76  -0.13700   0.00000   8.30984   0.05281   90.00000   0.00000   0.00300    75   76   77      2
    77  -0.13700   0.00000   8.36266   0.05281   90.00000   0.00000   0.00300    76   77   78      2
    78  -0.13700   0.00000   8.41547   0.05281   90.00000   0.00000   0.00300    77   78   79      2
    79  -0.13700   0.00000   8.46828   0.05281   90.00000   0.00000   0.00300    78   79   80      2
    80  -0.13700   0.00000   8.52109   0.05281   90.00000   0.00000   0.00300    79   80   81      2
    81  -0.13700   0.00000   8.57391   0.05281   90.00000   0.00000   0.00300    80   81   82      2
    82  -0.13700   0.00000   8.62672   0.05281   90.00000   0.00000   0.00300    81   82   83      2
    83  -0.13700   0.00000   8.67953   0.05281   90.00000   0.00000   0.00300    82   83   84      2
    84  -0.13700   0.00000   8.73234   0.05281   90.00000   0.00000   0.00300    83   84   85      2
    85  -0.13700   0.00000   8.78516   0.05281   90.00000   0.00000   0.00300    84   85   86      2
    86  -0.13700   0.00000   8.83797   0.05281   90.00000   0.00000   0.00300    85   86   87      2
    87  -0.13700   0.00000   8.89078   0.05281   90.00000   0.00000   0.00300    86   87   88      2
    88  -0.13700   0.00000   8.94359   0.05281   90.00000   0.00000   0.00300    87   88   55      2
    89   0.02283   0.00000   8.97000   0.04567    0.00000   0.00000   0.00300   -92   89   90      2
    90   0.06850   0.00000   8.97000   0.04567    0.00000   0.00000   0.00300    89   90   91      2
    91   0.11417   0.00000   8.97000   0.04567    0.00000   0.00000   0.00300    90   91  -72      2
    92   0.00000  -0.12100   8.96150   0.24260   -4.01831 -90.00000   0.00100    56   92  -42      4






 ***** DATA CARD NO.  1   GN   2     0     0     0  1.10000E+01  1.00000E-02  0.00000E+00  0.00000E+00  0.00000E+00  0.00000E+00
 ***** DATA CARD NO.  2   LD   5     0     0     0  5.80000E+07  0.00000E+00  0.00000E+00  0.00000E+00  0.00000E+00  0.00000E+00
 ***** DATA CARD NO.  3   EX   0   999     1     0  1.00000E+00  0.00000E+00  0.00000E+00  0.00000E+00  0.00000E+00  0.00000E+00
 ***** DATA CARD NO.  4   FR   0     1     0     0  1.44200E+02  0.00000E+00  0.00000E+00  0.00000E+00  0.00000E+00  0.00000E+00
 ***** DATA CARD NO.  5   RP   0     1     1  1000  8.50000E+01 -9.00000E+01  0.00000E+00  0.00000E+00  0.00000E+00  0.00000E+00




                                 - - - - - - FREQUENCY - - - - - -

                                    FREQUENCY= 1.4420E+02 MHZ
                                    WAVELENGTH= 2.0791E+00 METERS




                    APPROXIMATE INTEGRATION EMPLOYED FOR SEGMENTS MORE THAN   1.000 WAVELENGTHS APART



                               - - - STRUCTURE IMPEDANCE LOADING - - -


       LOCATION          RESISTANCE   INDUCTANCE  CAPACITANCE       IMPEDANCE (OHMS)     CONDUCTIVITY    TYPE
    ITAG FROM THRU          OHMS        HENRYS       FARADS        REAL      IMAGINARY    MHOS/METER

     ALL                                                                                 5.8000E+07     WIRE  



                                  - - - ANTENNA ENVIRONMENT - - -

                                        FINITE GROUND.  SOMMERFELD SOLUTION
                                        RELATIVE DIELECTRIC CONST.= 11.000
                                        CONDUCTIVITY= 1.000E-02 MHOS/METER
                                        COMPLEX DIELECTRIC CONSTANT= 1.10000E+01-1.24660E+00



                                - - - MATRIX TIMING - - -

                        FILL=    0.031 SEC.,  FACTOR=    0.000 SEC.



                                          - - - ANTENNA INPUT PARAMETERS - - -

   TAG   SEG.    VOLTAGE (VOLTS)         CURRENT (AMPS)         IMPEDANCE (OHMS)        ADMITTANCE (MHOS)      POWER
   NO.   NO.    REAL        IMAG.       REAL        IMAG.       REAL        IMAG.       REAL        IMAG.     (WATTS)
   999     3 1.00000E+00 0.00000E+00 1.30715E-02 2.31028E-02 1.85515E+01-3.27884E+01 1.30715E-02 2.31028E-02 6.53573E-03



                             - - - CURRENTS AND LOCATION - - -

                                 DISTANCES IN WAVELENGTHS


  SEG.  TAG    COORD. OF SEG. CENTER     SEG.            - - - CURRENT (AMPS) - - -
  NO.   NO.     X        Y        Z      LENGTH     REAL        IMAG.       MAG.        PHASE
     1    1   0.0525   0.0000   3.9080  0.02669   1.2545E-02  2.1566E-02  2.4949E-02   59.814
     2    1   0.0259   0.0000   3.9080  0.02669   1.2936E-02  2.2526E-02  2.5977E-02   60.132
     3  999   0.0000   0.0000   3.9080  0.02501   1.3071E-02  2.3103E-02  2.6544E-02   60.499
     4    1  -0.0259   0.0000   3.9080  0.02669   1.2936E-02  2.2526E-02  2.5977E-02   60.133
     5    1  -0.0525   0.0000   3.9080  0.02669   1.2544E-02  2.1566E-02  2.4949E-02   59.815
     6    3  -0.0635  -0.1164   3.9292  0.02601  -6.8666E-03 -1.9702E-02  2.0864E-02 -109.215
     7    3  -0.0635  -0.1164   3.9552  0.02601  -6.2753E-03 -1.7948E-02  1.9014E-02 -109.271
     8    3  -0.0635  -0.1164   3.9812  0.02601  -5.5237E-03 -1.5737E-02  1.6679E-02 -109.341
     9    3  -0.0635  -0.1164   4.0072  0.02601  -4.6299E-03 -1.3120E-02  1.3913E-02 -109.437
    10    3  -0.0635  -0.1164   4.0332  0.02601  -3.6163E-03 -1.0162E-02  1.0787E-02 -109.588
    11    3  -0.0635  -0.1164   4.0592  0.02601  -2.5094E-03 -6.9394E-03  7.3791E-03 -109.881
    12    3  -0.0635  -0.1164   4.0852  0.02601  -1.3380E-03 -3.5350E-03  3.7798E-03 -110.732
    13    3  -0.0635  -0.1164   4.1112  0.02601  -1.3325E-04 -3.8819E-05  1.3879E-04 -163.758
    14    3  -0.0635  -0.1164   4.1372  0.02601   1.0729E-03  3.4571E-03  3.6198E-03   72.758
    15    3  -0.0635  -0.1164   4.1633  0.02601   2.2484E-03  6.8604E-03  7.2194E-03   71.854
    16    3  -0.0635  -0.1164   4.1893  0.02601   3.3617E-03  1.0081E-02  1.0627E-02   71.558
    17    3  -0.0635  -0.1164   4.2153  0.02601   4.3833E-03  1.3035E-02  1.3752E-02   71.413
    18    3  -0.0635  -0.1164   4.2413  0.02601   5.2860E-03  1.5644E-02  1.6513E-02   71.330
    19    3  -0.0635  -0.1164   4.2673  0.02601   6.0457E-03  1.7841E-02  1.8837E-02   71.280
    20    3  -0.0635  -0.1164   4.2933  0.02601   6.6427E-03  1.9573E-02  2.0669E-02   71.254
    21    3   0.0635  -0.1164   3.9292  0.02601   6.8666E-03  1.9701E-02  2.0864E-02   70.785
    22    3   0.0635  -0.1164   3.9552  0.02601   6.2754E-03  1.7948E-02  1.9014E-02   70.728
    23    3   0.0635  -0.1164   3.9812  0.02601   5.5238E-03  1.5737E-02  1.6678E-02   70.659
    24    3   0.0635  -0.1164   4.0072  0.02601   4.6299E-03  1.3120E-02  1.3913E-02   70.563
    25    3   0.0635  -0.1164   4.0332  0.02601   3.6164E-03  1.0162E-02  1.0786E-02   70.411
    26    3   0.0635  -0.1164   4.0592  0.02601   2.5094E-03  6.9390E-03  7.3788E-03   70.118
    27    3   0.0635  -0.1164   4.0852  0.02601   1.3380E-03  3.5346E-03  3.7794E-03   69.267
    28    3   0.0635  -0.1164   4.1112  0.02601   1.3317E-04  3.8350E-05  1.3858E-04   16.065
    29    3   0.0635  -0.1164   4.1372  0.02601  -1.0730E-03 -3.4576E-03  3.6203E-03 -107.241
    30    3   0.0635  -0.1164   4.1633  0.02601  -2.2485E-03 -6.8609E-03  7.2199E-03 -108.146
    31    3   0.0635  -0.1164   4.1893  0.02601  -3.3619E-03 -1.0082E-02  1.0627E-02 -108.442
    32    3   0.0635  -0.1164   4.2153  0.02601  -4.3836E-03 -1.3035E-02  1.3752E-02 -108.587
    33    3   0.0635  -0.1164   4.2413  0.02601  -5.2862E-03 -1.5644E-02  1.6513E-02 -108.670
    34    3   0.0635  -0.1164   4.2673  0.02601  -6.0459E-03 -1.7841E-02  1.8838E-02 -108.720
    35    3   0.0635  -0.1164   4.2933  0.02601  -6.6428E-03 -1.9573E-02  2.0670E-02 -108.746
    36    3  -0.0508  -0.1164   3.9162  0.02540   7.2847E-03  2.0956E-02  2.2186E-02   70.832
    37    3  -0.0254  -0.1164   3.9162  0.02540   7.5434E-03  2.1725E-02  2.2998E-02   70.852
    38    3   0.0000  -0.1164   3.9162  0.02540   7.6321E-03  2.1987E-02  2.3274E-02   70.857
    39    3   0.0254  -0.1164   3.9162  0.02540   7.5434E-03  2.1725E-02  2.2998E-02   70.852
    40    3   0.0508  -0.1164   3.9162  0.02540   7.2847E-03  2.0956E-02  2.2186E-02   70.832
    41    3  -0.0476  -0.1164   4.3063  0.03175   7.1028E-03  2.0916E-02  2.2090E-02   71.244
    42    3  -0.0159  -0.1164   4.3063  0.03175   7.3738E-03  2.1701E-02  2.2919E-02   71.232
    43    3   0.0106  -0.1164   4.3063  0.02116   7.3945E-03  2.1758E-02  2.2981E-02   71.230
    44    3   0.0317  -0.1164   4.3063  0.02116   7.2719E-03  2.1405E-02  2.2607E-02   71.236
    45    3   0.0529  -0.1164   4.3063  0.02116   7.0336E-03  2.0715E-02  2.1876E-02   71.245
