1



                                 *********************************************

                                    NUMERICAL ELECTROMAGNETICS CODE (NEC-2D)

                                 *********************************************




                                     - - - - COMMENTS - - - -


                          No comments specified                                                      
                                                                                                     




                                 - - - STRUCTURE SPECIFICATION - - -

                                     COORDINATES MUST BE INPUT IN
                                     METERS OR BE SCALED TO METERS
                                     BEFORE STRUCTURE INPUT IS ENDED


  WIRE                                                                               NO. OF    FIRST  LAST     TAG
  NO.        X1         Y1         Z1          X2         Y2         Z2      RADIUS   SEG.     SEG.   SEG.     NO.
     1    0.00000    0.00000   -0.60000     0.00000    0.00000   -0.02600    0.00050     11        1    11       1
     2    0.00000    0.00000   -0.02600     0.00000    0.00000    0.02600    0.00050      1       12    12     999
     3    0.00000    0.00000    0.02600     0.00000    0.00000    0.60000    0.00050     11       13    23       1
      THE STRUCTURE HAS BEEN MOVED, MOVE DATA CARD IS -
        0    0   0.00000   0.00000   0.00000   0.00000   0.00000   8.00000   0.00000

   GROUND PLANE SPECIFIED.

   WHERE WIRE ENDS TOUCH GROUND, CURRENT WILL BE INTERPOLATED TO IMAGE IN GROUND PLANE.


   TOTAL SEGMENTS USED=   23     NO. SEG. IN A SYMMETRIC CELL=   23     SYMMETRY FLAG=  0


         - MULTIPLE WIRE JUNCTIONS -
 JUNCTION    SEGMENTS  (- FOR END 1, + FOR END 2)
  NONE




                                 - - - - SEGMENTATION DATA - - - -

                                        COORDINATES IN METERS

                         I+ AND I- INDICATE THE SEGMENTS BEFORE AND AFTER I


  SEG.   COORDINATES OF SEG. CENTER     SEG.     ORIENTATION ANGLES    WIRE    CONNECTION DATA   TAG
  NO.       X         Y         Z       LENGTH     ALPHA     BETA      RADIUS    I-   I    I+    NO.
     1   0.00000   0.00000   7.42609   0.05218   90.00000   0.00000   0.00050     0    1    2      1
     2   0.00000   0.00000   7.47827   0.05218   90.00000   0.00000   0.00050     1    2    3      1
     3   0.00000   0.00000   7.53045   0.05218   90.00000   0.00000   0.00050     2    3    4      1
     4   0.00000   0.00000   7.58264   0.05218   90.00000   0.00000   0.00050     3    4    5      1
     5   0.00000   0.00000   7.63482   0.05218   90.00000   0.00000   0.00050     4    5    6      1
     6   0.00000   0.00000   7.68700   0.05218   90.00000   0.00000   0.00050     5    6    7      1
     7   0.00000   0.00000   7.73918   0.05218   90.00000   0.00000   0.00050     6    7    8      1
     8   0.00000   0.00000   7.79136   0.05218   90.00000   0.00000   0.00050     7    8    9      1
     9   0.00000   0.00000   7.84355   0.05218   90.00000   0.00000   0.00050     8    9   10      1
    10   0.00000   0.00000   7.89573   0.05218   90.00000   0.00000   0.00050     9   10   11      1
    11   0.00000   0.00000   7.94791   0.05218   90.00000   0.00000   0.00050    10   11   12      1
    12   0.00000   0.00000   8.00000   0.05200   90.00000   0.00000   0.00050    11   12   13    999
    13   0.00000   0.00000   8.05209   0.05218   90.00000   0.00000   0.00050    12   13   14      1
    14   0.00000   0.00000   8.10427   0.05218   90.00000   0.00000   0.00050    13   14   15      1
    15   0.00000   0.00000   8.15645   0.05218   90.00000   0.00000   0.00050    14   15   16      1
    16   0.00000   0.00000   8.20864   0.05218   90.00000   0.00000   0.00050    15   16   17      1
    17   0.00000   0.00000   8.26082   0.05218   90.00000   0.00000   0.00050    16   17   18      1
    18   0.00000   0.00000   8.31300   0.05218   90.00000   0.00000   0.00050    17   18   19      1
    19   0.00000   0.00000   8.36518   0.05218   90.00000   0.00000   0.00050    18   19   20      1
    20   0.00000   0.00000   8.41736   0.05218   90.00000   0.00000   0.00050    19   20   21      1
    21   0.00000   0.00000   8.46955   0.05218   90.00000   0.00000   0.00050    20   21   22      1
    22   0.00000   0.00000   8.52173   0.05218   90.00000   0.00000   0.00050    21   22   23      1
    23   0.00000   0.00000   8.57391   0.05218   90.00000   0.00000   0.00050    22   23    0      1






 ***** DATA CARD NO.  1   GN   2     0     0     0  1.10000E+01  1.00000E-02  0.00000E+00  0.00000E+00  0.00000E+00  0.00000E+00
 ***** DATA CARD NO.  2   LD   5     0     0     0  5.80000E+07  0.00000E+00  0.00000E+00  0.00000E+00  0.00000E+00  0.00000E+00
 ***** DATA CARD NO.  3   EX   0   999     1     0  1.00000E+00  0.00000E+00  0.00000E+00  0.00000E+00  0.00000E+00  0.00000E+00
 ***** DATA CARD NO.  4   FR   0     1     0     0  1.44200E+02  0.00000E+00  0.00000E+00  0.00000E+00  0.00000E+00  0.00000E+00
 ***** DATA CARD NO.  5   RP   0     1     1  1000  8.50000E+01  0.00000E+00  0.00000E+00  0.00000E+00  0.00000E+00  0.00000E+00




                                 - - - - - - FREQUENCY - - - - - -

                                    FREQUENCY= 1.4420E+02 MHZ
                                    WAVELENGTH= 2.0791E+00 METERS




                    APPROXIMATE INTEGRATION EMPLOYED FOR SEGMENTS MORE THAN   1.000 WAVELENGTHS APART



                               - - - STRUCTURE IMPEDANCE LOADING - - -


       LOCATION          RESISTANCE   INDUCTANCE  CAPACITANCE       IMPEDANCE (OHMS)     CONDUCTIVITY    TYPE
    ITAG FROM THRU          OHMS        HENRYS       FARADS        REAL      IMAGINARY    MHOS/METER

     ALL                                                                                 5.8000E+07     WIRE  



                                  - - - ANTENNA ENVIRONMENT - - -

                                        FINITE GROUND.  SOMMERFELD SOLUTION
                                        RELATIVE DIELECTRIC CONST.= 11.000
                                        CONDUCTIVITY= 1.000E-02 MHOS/METER
                                        COMPLEX DIELECTRIC CONSTANT= 1.10000E+01-1.24660E+00



                                - - - MATRIX TIMING - - -

                        FILL=    0.000 SEC.,  FACTOR=    0.000 SEC.



                                          - - - ANTENNA INPUT PARAMETERS - - -

   TAG   SEG.    VOLTAGE (VOLTS)         CURRENT (AMPS)         IMPEDANCE (OHMS)        ADMITTANCE (MHOS)      POWER
   NO.   NO.    REAL        IMAG.       REAL        IMAG.       REAL        IMAG.       REAL        IMAG.     (WATTS)
   999    12 1.00000E+00 0.00000E+00 1.72467E-03-3.15778E-03 1.33220E+02 2.43918E+02 1.72467E-03-3.15778E-03 8.62334E-04



                             - - - CURRENTS AND LOCATION - - -

                                 DISTANCES IN WAVELENGTHS


  SEG.  TAG    COORD. OF SEG. CENTER     SEG.            - - - CURRENT (AMPS) - - -
  NO.   NO.     X        Y        Z      LENGTH     REAL        IMAG.       MAG.        PHASE
     1    1   0.0000   0.0000   3.5719  0.02510   1.3775E-04 -3.7834E-04  4.0264E-04  -69.994
     2    1   0.0000   0.0000   3.5970  0.02510   3.7657E-04 -1.0114E-03  1.0792E-03  -69.579
     3    1   0.0000   0.0000   3.6221  0.02510   5.9867E-04 -1.5704E-03  1.6806E-03  -69.132
     4    1   0.0000   0.0000   3.6472  0.02510   8.0897E-04 -2.0698E-03  2.2223E-03  -68.653
     5    1   0.0000   0.0000   3.6723  0.02510   1.0051E-03 -2.5041E-03  2.6983E-03  -68.130
     6    1   0.0000   0.0000   3.6973  0.02510   1.1838E-03 -2.8654E-03  3.1003E-03  -67.553
     7    1   0.0000   0.0000   3.7224  0.02510   1.3417E-03 -3.1461E-03  3.4202E-03  -66.904
     8    1   0.0000   0.0000   3.7475  0.02510   1.4756E-03 -3.3393E-03  3.6508E-03  -66.159
     9    1   0.0000   0.0000   3.7726  0.02510   1.5828E-03 -3.4389E-03  3.7857E-03  -65.285
    10    1   0.0000   0.0000   3.7977  0.02510   1.6611E-03 -3.4391E-03  3.8192E-03  -64.219
    11    1   0.0000   0.0000   3.8228  0.02510   1.7087E-03 -3.3282E-03  3.7412E-03  -62.824
    12  999   0.0000   0.0000   3.8479  0.02501   1.7247E-03 -3.1578E-03  3.5981E-03  -61.358
    13    1   0.0000   0.0000   3.8730  0.02510   1.7088E-03 -3.3282E-03  3.7412E-03  -62.823
    14    1   0.0000   0.0000   3.8981  0.02510   1.6612E-03 -3.4390E-03  3.8192E-03  -64.217
    15    1   0.0000   0.0000   3.9232  0.02510   1.5830E-03 -3.4388E-03  3.7856E-03  -65.281
    16    1   0.0000   0.0000   3.9483  0.02510   1.4758E-03 -3.3391E-03  3.6507E-03  -66.155
    17    1   0.0000   0.0000   3.9733  0.02510   1.3419E-03 -3.1459E-03  3.4202E-03  -66.899
    18    1   0.0000   0.0000   3.9984  0.02510   1.1841E-03 -2.8652E-03  3.1002E-03  -67.547
    19    1   0.0000   0.0000   4.0235  0.02510   1.0054E-03 -2.5039E-03  2.6982E-03  -68.124
    20    1   0.0000   0.0000   4.0486  0.02510   8.0920E-04 -2.0696E-03  2.2222E-03  -68.645
    21    1   0.0000   0.0000   4.0737  0.02510   5.9886E-04 -1.5702E-03  1.6805E-03  -69.124
    22    1   0.0000   0.0000   4.0988  0.02510   3.7670E-04 -1.0113E-03  1.0792E-03  -69.570
    23    1   0.0000   0.0000   4.1239  0.02510   1.3780E-04 -3.7829E-04  4.0261E-04  -69.985



                                        - - - POWER BUDGET - - -

                                           INPUT POWER   = 8.6233E-04 WATTS
                                           RADIATED POWER= 8.5711E-04 WATTS
                                           STRUCTURE LOSS= 5.2249E-06 WATTS
                                           NETWORK LOSS  = 0.0000E+00 WATTS
                                           EFFICIENCY    =  99.39 PERCENT



                                                - - - RADIATION PATTERNS - - -

  - - ANGLES - -           - POWER GAINS -       - - - POLARIZATION - - -    - - - E(THETA) - - -    - - - E(PHI) - - -
  THETA     PHI        VERT.   HOR.    TOTAL      AXIAL     TILT   SENSE     MAGNITUDE    PHASE      MAGNITUDE    PHASE 
 DEGREES  DEGREES       DB      DB      DB        RATIO     DEG.              VOLTS/M    DEGREES      VOLTS/M    DEGREES
   85.00     0.00       4.86 -999.99    4.86    0.00000     0.00  LINEAR    3.97996E-01   124.79    0.00000E+00     0.00






 ***** DATA CARD NO.  6   EN   0     1     1  1000  8.50000E+01  0.00000E+00  0.00000E+00  0.00000E+00  0.00000E+00  0.00000E+00

 RUN TIME =     0.078
