1



                                 *********************************************

                                    NUMERICAL ELECTROMAGNETICS CODE (NEC-2D)

                                 *********************************************




                                     - - - - COMMENTS - - - -


                          No comments specified                                                      
                                                                                                     




                                 - - - STRUCTURE SPECIFICATION - - -

                                     COORDINATES MUST BE INPUT IN
                                     METERS OR BE SCALED TO METERS
                                     BEFORE STRUCTURE INPUT IS ENDED


  WIRE                                                                               NO. OF    FIRST  LAST     TAG
  NO.        X1         Y1         Z1          X2         Y2         Z2      RADIUS   SEG.     SEG.   SEG.     NO.
     1    0.54700    0.00000    0.00000    -0.54700    0.00000    0.00000    0.00379     22        1    22       1
     2    0.56200    0.23400    0.00000     0.04200    0.23400    0.00000    0.00379     10       23    32       2
     3    0.04200    0.23400    0.00000    -0.01000    0.23400    0.00000    0.00379      1       33    33     999
     4   -0.01000    0.23400    0.00000    -0.56200    0.23400    0.00000    0.00379     10       34    43       2
     5    0.60000    0.64700    0.00000    -0.60000    0.64700    0.00000    0.00379     24       44    67       3
      THE STRUCTURE HAS BEEN MOVED, MOVE DATA CARD IS -
        0    0   0.00000   0.00000   0.00000   0.00000   0.00000   8.00000   0.00000

   GROUND PLANE SPECIFIED.

   WHERE WIRE ENDS TOUCH GROUND, CURRENT WILL BE INTERPOLATED TO IMAGE IN GROUND PLANE.


   TOTAL SEGMENTS USED=   67     NO. SEG. IN A SYMMETRIC CELL=   67     SYMMETRY FLAG=  0


         - MULTIPLE WIRE JUNCTIONS -
 JUNCTION    SEGMENTS  (- FOR END 1, + FOR END 2)
  NONE




                                 - - - - SEGMENTATION DATA - - - -

                                        COORDINATES IN METERS

                         I+ AND I- INDICATE THE SEGMENTS BEFORE AND AFTER I


  SEG.   COORDINATES OF SEG. CENTER     SEG.     ORIENTATION ANGLES    WIRE    CONNECTION DATA   TAG
  NO.       X         Y         Z       LENGTH     ALPHA     BETA      RADIUS    I-   I    I+    NO.
     1   0.52214   0.00000   8.00000   0.04973    0.00000 180.00000   0.00379     0    1    2      1
     2   0.47241   0.00000   8.00000   0.04973    0.00000 180.00000   0.00379     1    2    3      1
     3   0.42268   0.00000   8.00000   0.04973    0.00000 180.00000   0.00379     2    3    4      1
     4   0.37295   0.00000   8.00000   0.04973    0.00000 180.00000   0.00379     3    4    5      1
     5   0.32323   0.00000   8.00000   0.04973    0.00000 180.00000   0.00379     4    5    6      1
     6   0.27350   0.00000   8.00000   0.04973    0.00000 180.00000   0.00379     5    6    7      1
     7   0.22377   0.00000   8.00000   0.04973    0.00000 180.00000   0.00379     6    7    8      1
     8   0.17405   0.00000   8.00000   0.04973    0.00000 180.00000   0.00379     7    8    9      1
     9   0.12432   0.00000   8.00000   0.04973    0.00000 180.00000   0.00379     8    9   10      1
    10   0.07459   0.00000   8.00000   0.04973    0.00000 180.00000   0.00379     9   10   11      1
    11   0.02486   0.00000   8.00000   0.04973    0.00000 180.00000   0.00379    10   11   12      1
    12  -0.02486   0.00000   8.00000   0.04973    0.00000 180.00000   0.00379    11   12   13      1
    13  -0.07459   0.00000   8.00000   0.04973    0.00000 180.00000   0.00379    12   13   14      1
    14  -0.12432   0.00000   8.00000   0.04973    0.00000 180.00000   0.00379    13   14   15      1
    15  -0.17405   0.00000   8.00000   0.04973    0.00000 180.00000   0.00379    14   15   16      1
    16  -0.22377   0.00000   8.00000   0.04973    0.00000 180.00000   0.00379    15   16   17      1
    17  -0.27350   0.00000   8.00000   0.04973    0.00000 180.00000   0.00379    16   17   18      1
    18  -0.32323   0.00000   8.00000   0.04973    0.00000 180.00000   0.00379    17   18   19      1
    19  -0.37295   0.00000   8.00000   0.04973    0.00000 180.00000   0.00379    18   19   20      1
    20  -0.42268   0.00000   8.00000   0.04973    0.00000 180.00000   0.00379    19   20   21      1
    21  -0.47241   0.00000   8.00000   0.04973    0.00000 180.00000   0.00379    20   21   22      1
    22  -0.52214   0.00000   8.00000   0.04973    0.00000 180.00000   0.00379    21   22    0      1
    23   0.53600   0.23400   8.00000   0.05200    0.00000 180.00000   0.00379     0   23   24      2
    24   0.48400   0.23400   8.00000   0.05200    0.00000 180.00000   0.00379    23   24   25      2
    25   0.43200   0.23400   8.00000   0.05200    0.00000 180.00000   0.00379    24   25   26      2
    26   0.38000   0.23400   8.00000   0.05200    0.00000 180.00000   0.00379    25   26   27      2
    27   0.32800   0.23400   8.00000   0.05200    0.00000 180.00000   0.00379    26   27   28      2
    28   0.27600   0.23400   8.00000   0.05200    0.00000 180.00000   0.00379    27   28   29      2
    29   0.22400   0.23400   8.00000   0.05200    0.00000 180.00000   0.00379    28   29   30      2
    30   0.17200   0.23400   8.00000   0.05200    0.00000 180.00000   0.00379    29   30   31      2
    31   0.12000   0.23400   8.00000   0.05200    0.00000 180.00000   0.00379    30   31   32      2
    32   0.06800   0.23400   8.00000   0.05200    0.00000 180.00000   0.00379    31   32   33      2
    33   0.01600   0.23400   8.00000   0.05200    0.00000 180.00000   0.00379    32   33   34    999
    34  -0.03760   0.23400   8.00000   0.05520    0.00000 180.00000   0.00379    33   34   35      2
    35  -0.09280   0.23400   8.00000   0.05520    0.00000 180.00000   0.00379    34   35   36      2
    36  -0.14800   0.23400   8.00000   0.05520    0.00000 180.00000   0.00379    35   36   37      2
    37  -0.20320   0.23400   8.00000   0.05520    0.00000 180.00000   0.00379    36   37   38      2
    38  -0.25840   0.23400   8.00000   0.05520    0.00000 180.00000   0.00379    37   38   39      2
    39  -0.31360   0.23400   8.00000   0.05520    0.00000 180.00000   0.00379    38   39   40      2
    40  -0.36880   0.23400   8.00000   0.05520    0.00000 180.00000   0.00379    39   40   41      2
    41  -0.42400   0.23400   8.00000   0.05520    0.00000 180.00000   0.00379    40   41   42      2
    42  -0.47920   0.23400   8.00000   0.05520    0.00000 180.00000   0.00379    41   42   43      2
    43  -0.53440   0.23400   8.00000   0.05520    0.00000 180.00000   0.00379    42   43    0      2
    44   0.57500   0.64700   8.00000   0.05000    0.00000 180.00000   0.00379     0   44   45      3
    45   0.52500   0.64700   8.00000   0.05000    0.00000 180.00000   0.00379    44   45   46      3
    46   0.47500   0.64700   8.00000   0.05000    0.00000 180.00000   0.00379    45   46   47      3
    47   0.42500   0.64700   8.00000   0.05000    0.00000 180.00000   0.00379    46   47   48      3
    48   0.37500   0.64700   8.00000   0.05000    0.00000 180.00000   0.00379    47   48   49      3
    49   0.32500   0.64700   8.00000   0.05000    0.00000 180.00000   0.00379    48   49   50      3
    50   0.27500   0.64700   8.00000   0.05000    0.00000 180.00000   0.00379    49   50   51      3
    51   0.22500   0.64700   8.00000   0.05000    0.00000 180.00000   0.00379    50   51   52      3
    52   0.17500   0.64700   8.00000   0.05000    0.00000 180.00000   0.00379    51   52   53      3
    53   0.12500   0.64700   8.00000   0.05000    0.00000 180.00000   0.00379    52   53   54      3
    54   0.07500   0.64700   8.00000   0.05000    0.00000 180.00000   0.00379    53   54   55      3
    55   0.02500   0.64700   8.00000   0.05000    0.00000 180.00000   0.00379    54   55   56      3
    56  -0.02500   0.64700   8.00000   0.05000    0.00000 180.00000   0.00379    55   56   57      3
    57  -0.07500   0.64700   8.00000   0.05000    0.00000 180.00000   0.00379    56   57   58      3
    58  -0.12500   0.64700   8.00000   0.05000    0.00000 180.00000   0.00379    57   58   59      3
    59  -0.17500   0.64700   8.00000   0.05000    0.00000 180.00000   0.00379    58   59   60      3
    60  -0.22500   0.64700   8.00000   0.05000    0.00000 180.00000   0.00379    59   60   61      3
    61  -0.27500   0.64700   8.00000   0.05000    0.00000 180.00000   0.00379    60   61   62      3
    62  -0.32500   0.64700   8.00000   0.05000    0.00000 180.00000   0.00379    61   62   63      3
    63  -0.37500   0.64700   8.00000   0.05000    0.00000 180.00000   0.00379    62   63   64      3
    64  -0.42500   0.64700   8.00000   0.05000    0.00000 180.00000   0.00379    63   64   65      3
    65  -0.47500   0.64700   8.00000   0.05000    0.00000 180.00000   0.00379    64   65   66      3
    66  -0.52500   0.64700   8.00000   0.05000    0.00000 180.00000   0.00379    65   66   67      3
    67  -0.57500   0.64700   8.00000   0.05000    0.00000 180.00000   0.00379    66   67    0      3






 ***** DATA CARD NO.  1   GN   2     0     0     0  1.10000E+01  1.00000E-02  0.00000E+00  0.00000E+00  0.00000E+00  0.00000E+00
 ***** DATA CARD NO.  2   EK   0     0     0     0  0.00000E+00  0.00000E+00  0.00000E+00  0.00000E+00  0.00000E+00  0.00000E+00
 ***** DATA CARD NO.  3   LD   5     0     0     0  5.80000E+07  0.00000E+00  0.00000E+00  0.00000E+00  0.00000E+00  0.00000E+00
 ***** DATA CARD NO.  4   EX   0   999     1     0  1.00000E+00  0.00000E+00  0.00000E+00  0.00000E+00  0.00000E+00  0.00000E+00
 ***** DATA CARD NO.  5   FR   0     1     0     0  1.44200E+02  0.00000E+00  0.00000E+00  0.00000E+00  0.00000E+00  0.00000E+00
 ***** DATA CARD NO.  6   RP   0     1     1  1000  8.70000E+01  9.00000E+01  0.00000E+00  0.00000E+00  0.00000E+00  0.00000E+00




                                 - - - - - - FREQUENCY - - - - - -

                                    FREQUENCY= 1.4420E+02 MHZ
                                    WAVELENGTH= 2.0791E+00 METERS




                    APPROXIMATE INTEGRATION EMPLOYED FOR SEGMENTS MORE THAN   1.000 WAVELENGTHS APART

                    THE EXTENDED THIN WIRE KERNEL WILL BE USED



                               - - - STRUCTURE IMPEDANCE LOADING - - -


       LOCATION          RESISTANCE   INDUCTANCE  CAPACITANCE       IMPEDANCE (OHMS)     CONDUCTIVITY    TYPE
    ITAG FROM THRU          OHMS        HENRYS       FARADS        REAL      IMAGINARY    MHOS/METER

     ALL                                                                                 5.8000E+07     WIRE  



                                  - - - ANTENNA ENVIRONMENT - - -

                                        FINITE GROUND.  SOMMERFELD SOLUTION
                                        RELATIVE DIELECTRIC CONST.= 11.000
                                        CONDUCTIVITY= 1.000E-02 MHOS/METER
                                        COMPLEX DIELECTRIC CONSTANT= 1.10000E+01-1.24660E+00



                                - - - MATRIX TIMING - - -

                        FILL=    0.016 SEC.,  FACTOR=    0.000 SEC.



                                          - - - ANTENNA INPUT PARAMETERS - - -

   TAG   SEG.    VOLTAGE (VOLTS)         CURRENT (AMPS)         IMPEDANCE (OHMS)        ADMITTANCE (MHOS)      POWER
   NO.   NO.    REAL        IMAG.       REAL        IMAG.       REAL        IMAG.       REAL        IMAG.     (WATTS)
   999    33 1.00000E+00 0.00000E+00 1.14689E-03-5.18259E-03 4.07066E+01 1.83946E+02 1.14689E-03-5.18259E-03 5.73446E-04



                             - - - CURRENTS AND LOCATION - - -

                                 DISTANCES IN WAVELENGTHS


  SEG.  TAG    COORD. OF SEG. CENTER     SEG.            - - - CURRENT (AMPS) - - -
  NO.   NO.     X        Y        Z      LENGTH     REAL        IMAG.       MAG.        PHASE
     1    1   0.2511   0.0000   3.8479  0.02392   1.4122E-04  4.2695E-04  4.4970E-04   71.698
     2    1   0.2272   0.0000   3.8479  0.02392   3.4027E-04  1.0446E-03  1.0986E-03   71.957
     3    1   0.2033   0.0000   3.8479  0.02392   5.1289E-04  1.5956E-03  1.6760E-03   72.181
     4    1   0.1794   0.0000   3.8479  0.02392   6.7037E-04  2.1083E-03  2.2123E-03   72.361
     5    1   0.1555   0.0000   3.8479  0.02392   8.1262E-04  2.5776E-03  2.7027E-03   72.502
     6    1   0.1316   0.0000   3.8479  0.02392   9.3844E-04  2.9960E-03  3.1395E-03   72.608
     7    1   0.1076   0.0000   3.8479  0.02392   1.0463E-03  3.3560E-03  3.5154E-03   72.685
     8    1   0.0837   0.0000   3.8479  0.02392   1.1346E-03  3.6514E-03  3.8236E-03   72.738
     9    1   0.0598   0.0000   3.8479  0.02392   1.2021E-03  3.8772E-03  4.0593E-03   72.774
    10    1   0.0359   0.0000   3.8479  0.02392   1.2476E-03  4.0302E-03  4.2189E-03   72.799
    11    1   0.0120   0.0000   3.8479  0.02392   1.2705E-03  4.1084E-03  4.3004E-03   72.816
    12    1  -0.0120   0.0000   3.8479  0.02392   1.2703E-03  4.1108E-03  4.3026E-03   72.828
    13    1  -0.0359   0.0000   3.8479  0.02392   1.2471E-03  4.0370E-03  4.2252E-03   72.833
    14    1  -0.0598   0.0000   3.8479  0.02392   1.2012E-03  3.8873E-03  4.0687E-03   72.828
    15    1  -0.0837   0.0000   3.8479  0.02392   1.1335E-03  3.6636E-03  3.8349E-03   72.809
    16    1  -0.1076   0.0000   3.8479  0.02392   1.0449E-03  3.3690E-03  3.5273E-03   72.768
    17    1  -0.1316   0.0000   3.8479  0.02392   9.3694E-04  3.0086E-03  3.1511E-03   72.703
    18    1  -0.1555   0.0000   3.8479  0.02392   8.1107E-04  2.5890E-03  2.7131E-03   72.606
    19    1  -0.1794   0.0000   3.8479  0.02392   6.6888E-04  2.1178E-03  2.2209E-03   72.472
    20    1  -0.2033   0.0000   3.8479  0.02392   5.1158E-04  1.6028E-03  1.6824E-03   72.298
    21    1  -0.2272   0.0000   3.8479  0.02392   3.3929E-04  1.0492E-03  1.1027E-03   72.079
    22    1  -0.2511   0.0000   3.8479  0.02392   1.4076E-04  4.2872E-04  4.5124E-04   71.824
    23    2   0.2578   0.1126   3.8479  0.02501   1.2931E-04 -7.6561E-04  7.7645E-04  -80.413
    24    2   0.2328   0.1126   3.8479  0.02501   3.1257E-04 -1.8399E-03  1.8663E-03  -80.358
    25    2   0.2078   0.1126   3.8479  0.02501   4.7105E-04 -2.7508E-03  2.7908E-03  -80.283
    26    2   0.1828   0.1126   3.8479  0.02501   6.1500E-04 -3.5526E-03  3.6055E-03  -80.179
    27    2   0.1578   0.1126   3.8479  0.02501   7.4434E-04 -4.2384E-03  4.3033E-03  -80.039
    28    2   0.1328   0.1126   3.8479  0.02501   8.5802E-04 -4.7957E-03  4.8719E-03  -79.856
    29    2   0.1077   0.1126   3.8479  0.02501   9.5467E-04 -5.2113E-03  5.2981E-03  -79.619
    30    2   0.0827   0.1126   3.8479  0.02501   1.0329E-03 -5.4721E-03  5.5687E-03  -79.310
    31    2   0.0577   0.1126   3.8479  0.02501   1.0916E-03 -5.5635E-03  5.6695E-03  -78.899
    32    2   0.0327   0.1126   3.8479  0.02501   1.1298E-03 -5.4504E-03  5.5663E-03  -78.289
    33  999   0.0077   0.1126   3.8479  0.02501   1.1469E-03 -5.1826E-03  5.3080E-03  -77.522
    34    2  -0.0181   0.1126   3.8479  0.02655   1.1421E-03 -5.5557E-03  5.6719E-03  -78.384
    35    2  -0.0446   0.1126   3.8479  0.02655   1.1134E-03 -5.7624E-03  5.8690E-03  -79.064
    36    2  -0.0712   0.1126   3.8479  0.02655   1.0612E-03 -5.7377E-03  5.8350E-03  -79.521
    37    2  -0.0977   0.1126   3.8479  0.02655   9.8660E-04 -5.5171E-03  5.6046E-03  -79.861
    38    2  -0.1243   0.1126   3.8479  0.02655   8.9078E-04 -5.1154E-03  5.1924E-03  -80.122
    39    2  -0.1508   0.1126   3.8479  0.02655   7.7538E-04 -4.5468E-03  4.6124E-03  -80.322
    40    2  -0.1774   0.1126   3.8479  0.02655   6.4207E-04 -3.8266E-03  3.8801E-03  -80.475
    41    2  -0.2039   0.1126   3.8479  0.02655   4.9225E-04 -2.9699E-03  3.0105E-03  -80.589
    42    2  -0.2305   0.1126   3.8479  0.02655   3.2637E-04 -1.9870E-03  2.0136E-03  -80.672
    43    2  -0.2570   0.1126   3.8479  0.02655   1.3430E-04 -8.2307E-04  8.3396E-04  -80.733
    44    3   0.2766   0.3112   3.8479  0.02405   1.0871E-04  1.5602E-04  1.9016E-04   55.131
    45    3   0.2525   0.3112   3.8479  0.02405   2.6533E-04  3.8439E-04  4.6707E-04   55.385
    46    3   0.2285   0.3112   3.8479  0.02405   4.0480E-04  5.9181E-04  7.1701E-04   55.627
    47    3   0.2044   0.3112   3.8479  0.02405   5.3527E-04  7.8904E-04  9.5347E-04   55.848
    48    3   0.1804   0.3112   3.8479  0.02405   6.5622E-04  9.7449E-04  1.1748E-03   56.044
    49    3   0.1563   0.3112   3.8479  0.02405   7.6637E-04  1.1453E-03  1.3781E-03   56.213
    50    3   0.1323   0.3112   3.8479  0.02405   8.6421E-04  1.2985E-03  1.5598E-03   56.355
    51    3   0.1082   0.3112   3.8479  0.02405   9.4826E-04  1.4311E-03  1.7168E-03   56.472
    52    3   0.0842   0.3112   3.8479  0.02405   1.0172E-03  1.5405E-03  1.8461E-03   56.564
    53    3   0.0601   0.3112   3.8479  0.02405   1.0699E-03  1.6247E-03  1.9453E-03   56.635
    54    3   0.0361   0.3112   3.8479  0.02405   1.1054E-03  1.6820E-03  2.0127E-03   56.687
    55    3   0.0120   0.3112   3.8479  0.02405   1.1232E-03  1.7113E-03  2.0470E-03   56.720
    56    3  -0.0120   0.3112   3.8479  0.02405   1.1230E-03  1.7120E-03  2.0475E-03   56.737
    57    3  -0.0361   0.3112   3.8479  0.02405   1.1048E-03  1.6841E-03  2.0142E-03   56.735
    58    3  -0.0601   0.3112   3.8479  0.02405   1.0689E-03  1.6281E-03  1.9476E-03   56.715
    59    3  -0.0842   0.3112   3.8479  0.02405   1.0159E-03  1.5449E-03  1.8489E-03   56.673
    60    3  -0.1082   0.3112   3.8479  0.02405   9.4665E-04  1.4360E-03  1.7200E-03   56.607
    61    3  -0.1323   0.3112   3.8479  0.02405   8.6241E-04  1.3037E-03  1.5631E-03   56.514
    62    3  -0.1563   0.3112   3.8479  0.02405   7.6447E-04  1.1504E-03  1.3812E-03   56.394
    63    3  -0.1804   0.3112   3.8479  0.02405   6.5433E-04  9.7907E-04  1.1776E-03   56.245
    64    3  -0.2044   0.3112   3.8479  0.02405   5.3350E-04  7.9293E-04  9.5570E-04   56.067
    65    3  -0.2285   0.3112   3.8479  0.02405   4.0329E-04  5.9481E-04  7.1864E-04   55.862
    66    3  -0.2525   0.3112   3.8479  0.02405   2.6421E-04  3.8637E-04  4.6807E-04   55.634
    67    3  -0.2766   0.3112   3.8479  0.02405   1.0821E-04  1.5683E-04  1.9054E-04   55.395



                                        - - - POWER BUDGET - - -

                                           INPUT POWER   = 5.7345E-04 WATTS
                                           RADIATED POWER= 5.7108E-04 WATTS
                                           STRUCTURE LOSS= 2.3674E-06 WATTS
                                           NETWORK LOSS  = 0.0000E+00 WATTS
                                           EFFICIENCY    =  99.59 PERCENT



                                                - - - RADIATION PATTERNS - - -

  - - ANGLES - -           - POWER GAINS -       - - - POLARIZATION - - -    - - - E(THETA) - - -    - - - E(PHI) - - -
  THETA     PHI        VERT.   HOR.    TOTAL      AXIAL     TILT   SENSE     MAGNITUDE    PHASE      MAGNITUDE    PHASE 
 DEGREES  DEGREES       DB      DB      DB        RATIO     DEG.              VOLTS/M    DEGREES      VOLTS/M    DEGREES
   87.00    90.00    -999.99    8.89    8.89    0.00000    90.00  LINEAR    4.40882E-14   -54.23    5.15916E-01     5.66






 ***** DATA CARD NO.  7   EN   0     1     1  1000  8.70000E+01  9.00000E+01  0.00000E+00  0.00000E+00  0.00000E+00  0.00000E+00

 RUN TIME =     0.094
