1



                                 *********************************************

                                    NUMERICAL ELECTROMAGNETICS CODE (NEC-2D)

                                 *********************************************




                                     - - - - COMMENTS - - - -


                          No comments specified                                                      
                                                                                                     




                                 - - - STRUCTURE SPECIFICATION - - -

                                     COORDINATES MUST BE INPUT IN
                                     METERS OR BE SCALED TO METERS
                                     BEFORE STRUCTURE INPUT IS ENDED


  WIRE                                                                               NO. OF    FIRST  LAST     TAG
  NO.        X1         Y1         Z1          X2         Y2         Z2      RADIUS   SEG.     SEG.   SEG.     NO.
     1    0.14000    0.00000    0.12000     0.02600    0.00000    0.12000    0.00300      2        1     2      19
     2    0.02600    0.00000    0.12000    -0.02600    0.00000    0.12000    0.00300      1        3     3     999
     3   -0.02600    0.00000    0.12000    -0.14000    0.00000    0.12000    0.00300      2        4     5      19
     4   -0.14000    0.00000    0.00000    -0.14000    0.00000    0.12000    0.00300      2        6     7      20
     5    0.14000    0.00000    0.00000     0.14000    0.00000    0.12000    0.00300      2        8     9      20
     6   -0.14000    0.00000    0.00000     0.14000    0.00000    0.00000    0.00300      5       10    14      20
     7   -0.14000    0.00000    1.04000     0.14000    0.00000    1.04000    0.00300      5       15    19      20
     8    0.14000    0.00000    0.12000     0.14000    0.00000    1.04000    0.00300     17       20    36      20
     9   -0.14000    0.00000    0.12000    -0.14000    0.00000    1.04000    0.00300     17       37    53      20
      THE STRUCTURE HAS BEEN MOVED, MOVE DATA CARD IS -
        0    0   0.00000   0.00000   0.00000   0.00000   0.00000   8.00000   0.00000

   GROUND PLANE SPECIFIED.

   WHERE WIRE ENDS TOUCH GROUND, CURRENT WILL BE INTERPOLATED TO IMAGE IN GROUND PLANE.


   TOTAL SEGMENTS USED=   53     NO. SEG. IN A SYMMETRIC CELL=   53     SYMMETRY FLAG=  0


         - MULTIPLE WIRE JUNCTIONS -
 JUNCTION    SEGMENTS  (- FOR END 1, + FOR END 2)
     1        -1    9  -20
     2         5    7  -37




                                 - - - - SEGMENTATION DATA - - - -

                                        COORDINATES IN METERS

                         I+ AND I- INDICATE THE SEGMENTS BEFORE AND AFTER I


  SEG.   COORDINATES OF SEG. CENTER     SEG.     ORIENTATION ANGLES    WIRE    CONNECTION DATA   TAG
  NO.       X         Y         Z       LENGTH     ALPHA     BETA      RADIUS    I-   I    I+    NO.
     1   0.11150   0.00000   8.12000   0.05700    0.00000 180.00000   0.00300     9    1    2     19
     2   0.05450   0.00000   8.12000   0.05700    0.00000 180.00000   0.00300     1    2    3     19
     3   0.00000   0.00000   8.12000   0.05200    0.00000 180.00000   0.00300     2    3    4    999
     4  -0.05450   0.00000   8.12000   0.05700    0.00000 180.00000   0.00300     3    4    5     19
     5  -0.11150   0.00000   8.12000   0.05700    0.00000 180.00000   0.00300     4    5   -7     19
     6  -0.14000   0.00000   8.03000   0.06000   90.00000   0.00000   0.00300   -10    6    7     20
     7  -0.14000   0.00000   8.09000   0.06000   90.00000   0.00000   0.00300     6    7   37     20
     8   0.14000   0.00000   8.03000   0.06000   90.00000   0.00000   0.00300    14    8    9     20
     9   0.14000   0.00000   8.09000   0.06000   90.00000   0.00000   0.00300     8    9   20     20
    10  -0.11200   0.00000   8.00000   0.05600    0.00000   0.00000   0.00300    -6   10   11     20
    11  -0.05600   0.00000   8.00000   0.05600    0.00000   0.00000   0.00300    10   11   12     20
    12   0.00000   0.00000   8.00000   0.05600    0.00000   0.00000   0.00300    11   12   13     20
    13   0.05600   0.00000   8.00000   0.05600    0.00000   0.00000   0.00300    12   13   14     20
    14   0.11200   0.00000   8.00000   0.05600    0.00000   0.00000   0.00300    13   14    8     20
    15  -0.11200   0.00000   9.04000   0.05600    0.00000   0.00000   0.00300    53   15   16     20
    16  -0.05600   0.00000   9.04000   0.05600    0.00000   0.00000   0.00300    15   16   17     20
    17   0.00000   0.00000   9.04000   0.05600    0.00000   0.00000   0.00300    16   17   18     20
    18   0.05600   0.00000   9.04000   0.05600    0.00000   0.00000   0.00300    17   18   19     20
    19   0.11200   0.00000   9.04000   0.05600    0.00000   0.00000   0.00300    18   19  -36     20
    20   0.14000   0.00000   8.14706   0.05412   90.00000   0.00000   0.00300    -1   20   21     20
    21   0.14000   0.00000   8.20118   0.05412   90.00000   0.00000   0.00300    20   21   22     20
    22   0.14000   0.00000   8.25529   0.05412   90.00000   0.00000   0.00300    21   22   23     20
    23   0.14000   0.00000   8.30941   0.05412   90.00000   0.00000   0.00300    22   23   24     20
    24   0.14000   0.00000   8.36353   0.05412   90.00000   0.00000   0.00300    23   24   25     20
    25   0.14000   0.00000   8.41765   0.05412   90.00000   0.00000   0.00300    24   25   26     20
    26   0.14000   0.00000   8.47176   0.05412   90.00000   0.00000   0.00300    25   26   27     20
    27   0.14000   0.00000   8.52588   0.05412   90.00000   0.00000   0.00300    26   27   28     20
    28   0.14000   0.00000   8.58000   0.05412   90.00000   0.00000   0.00300    27   28   29     20
    29   0.14000   0.00000   8.63412   0.05412   90.00000   0.00000   0.00300    28   29   30     20
    30   0.14000   0.00000   8.68824   0.05412   90.00000   0.00000   0.00300    29   30   31     20
    31   0.14000   0.00000   8.74235   0.05412   90.00000   0.00000   0.00300    30   31   32     20
    32   0.14000   0.00000   8.79647   0.05412   90.00000   0.00000   0.00300    31   32   33     20
    33   0.14000   0.00000   8.85059   0.05412   90.00000   0.00000   0.00300    32   33   34     20
    34   0.14000   0.00000   8.90471   0.05412   90.00000   0.00000   0.00300    33   34   35     20
    35   0.14000   0.00000   8.95882   0.05412   90.00000   0.00000   0.00300    34   35   36     20
    36   0.14000   0.00000   9.01294   0.05412   90.00000   0.00000   0.00300    35   36  -19     20
    37  -0.14000   0.00000   8.14706   0.05412   90.00000   0.00000   0.00300     5   37   38     20
    38  -0.14000   0.00000   8.20118   0.05412   90.00000   0.00000   0.00300    37   38   39     20
    39  -0.14000   0.00000   8.25529   0.05412   90.00000   0.00000   0.00300    38   39   40     20
    40  -0.14000   0.00000   8.30941   0.05412   90.00000   0.00000   0.00300    39   40   41     20
    41  -0.14000   0.00000   8.36353   0.05412   90.00000   0.00000   0.00300    40   41   42     20
    42  -0.14000   0.00000   8.41765   0.05412   90.00000   0.00000   0.00300    41   42   43     20
    43  -0.14000   0.00000   8.47176   0.05412   90.00000   0.00000   0.00300    42   43   44     20
    44  -0.14000   0.00000   8.52588   0.05412   90.00000   0.00000   0.00300    43   44   45     20
    45  -0.14000   0.00000   8.58000   0.05412   90.00000   0.00000   0.00300    44   45   46     20
    46  -0.14000   0.00000   8.63412   0.05412   90.00000   0.00000   0.00300    45   46   47     20
    47  -0.14000   0.00000   8.68824   0.05412   90.00000   0.00000   0.00300    46   47   48     20
    48  -0.14000   0.00000   8.74235   0.05412   90.00000   0.00000   0.00300    47   48   49     20
    49  -0.14000   0.00000   8.79647   0.05412   90.00000   0.00000   0.00300    48   49   50     20
    50  -0.14000   0.00000   8.85059   0.05412   90.00000   0.00000   0.00300    49   50   51     20
    51  -0.14000   0.00000   8.90471   0.05412   90.00000   0.00000   0.00300    50   51   52     20
    52  -0.14000   0.00000   8.95882   0.05412   90.00000   0.00000   0.00300    51   52   53     20
    53  -0.14000   0.00000   9.01294   0.05412   90.00000   0.00000   0.00300    52   53   15     20






 ***** DATA CARD NO.  1   GN   2     0     0     0  1.10000E+01  1.00000E-02  0.00000E+00  0.00000E+00  0.00000E+00  0.00000E+00
 ***** DATA CARD NO.  2   EK   0     0     0     0  0.00000E+00  0.00000E+00  0.00000E+00  0.00000E+00  0.00000E+00  0.00000E+00
 ***** DATA CARD NO.  3   LD   5     0     0     0  5.80000E+07  0.00000E+00  0.00000E+00  0.00000E+00  0.00000E+00  0.00000E+00
 ***** DATA CARD NO.  4   EX   0   999     1     0  1.00000E+00  0.00000E+00  0.00000E+00  0.00000E+00  0.00000E+00  0.00000E+00
 ***** DATA CARD NO.  5   FR   0     1     0     0  1.44200E+02  0.00000E+00  0.00000E+00  0.00000E+00  0.00000E+00  0.00000E+00
 ***** DATA CARD NO.  6   RP   0     1     1  1000  8.50000E+01  9.00000E+01  0.00000E+00  0.00000E+00  0.00000E+00  0.00000E+00




                                 - - - - - - FREQUENCY - - - - - -

                                    FREQUENCY= 1.4420E+02 MHZ
                                    WAVELENGTH= 2.0791E+00 METERS




                    APPROXIMATE INTEGRATION EMPLOYED FOR SEGMENTS MORE THAN   1.000 WAVELENGTHS APART

                    THE EXTENDED THIN WIRE KERNEL WILL BE USED



                               - - - STRUCTURE IMPEDANCE LOADING - - -


       LOCATION          RESISTANCE   INDUCTANCE  CAPACITANCE       IMPEDANCE (OHMS)     CONDUCTIVITY    TYPE
    ITAG FROM THRU          OHMS        HENRYS       FARADS        REAL      IMAGINARY    MHOS/METER

     ALL                                                                                 5.8000E+07     WIRE  



                                  - - - ANTENNA ENVIRONMENT - - -

                                        FINITE GROUND.  SOMMERFELD SOLUTION
                                        RELATIVE DIELECTRIC CONST.= 11.000
                                        CONDUCTIVITY= 1.000E-02 MHOS/METER
                                        COMPLEX DIELECTRIC CONSTANT= 1.10000E+01-1.24660E+00



                                - - - MATRIX TIMING - - -

                        FILL=    0.016 SEC.,  FACTOR=    0.000 SEC.



                                          - - - ANTENNA INPUT PARAMETERS - - -

   TAG   SEG.    VOLTAGE (VOLTS)         CURRENT (AMPS)         IMPEDANCE (OHMS)        ADMITTANCE (MHOS)      POWER
   NO.   NO.    REAL        IMAG.       REAL        IMAG.       REAL        IMAG.       REAL        IMAG.     (WATTS)
   999     3 1.00000E+00 0.00000E+00 1.58117E-03-7.23292E-03 2.88454E+01 1.31951E+02 1.58117E-03-7.23292E-03 7.90585E-04



                             - - - CURRENTS AND LOCATION - - -

                                 DISTANCES IN WAVELENGTHS


  SEG.  TAG    COORD. OF SEG. CENTER     SEG.            - - - CURRENT (AMPS) - - -
  NO.   NO.     X        Y        Z      LENGTH     REAL        IMAG.       MAG.        PHASE
     1   19   0.0536   0.0000   3.9056  0.02742   1.5433E-03 -7.6625E-03  7.8163E-03  -78.613
     2   19   0.0262   0.0000   3.9056  0.02742   1.5715E-03 -7.5275E-03  7.6898E-03  -78.208
     3  999   0.0000   0.0000   3.9056  0.02501   1.5812E-03 -7.2329E-03  7.4037E-03  -77.669
     4   19  -0.0262   0.0000   3.9056  0.02742   1.5715E-03 -7.5275E-03  7.6898E-03  -78.208
     5   19  -0.0536   0.0000   3.9056  0.02742   1.5433E-03 -7.6625E-03  7.8163E-03  -78.613
     6   20  -0.0673   0.0000   3.8623  0.02886   5.8451E-04 -6.8407E-05  5.8850E-04   -6.675
     7   20  -0.0673   0.0000   3.8912  0.02886   5.5391E-04  1.3245E-05  5.5407E-04    1.370
     8   20   0.0673   0.0000   3.8623  0.02886  -5.8451E-04  6.8407E-05  5.8850E-04  173.325
     9   20   0.0673   0.0000   3.8912  0.02886  -5.5391E-04 -1.3245E-05  5.5407E-04 -178.630
    10   20  -0.0539   0.0000   3.8479  0.02694  -6.0053E-04  1.3897E-04  6.1640E-04  166.971
    11   20  -0.0269   0.0000   3.8479  0.02694  -6.0974E-04  1.8510E-04  6.3721E-04  163.113
    12   20   0.0000   0.0000   3.8479  0.02694  -6.1290E-04  2.0192E-04  6.4530E-04  161.766
    13   20   0.0269   0.0000   3.8479  0.02694  -6.0974E-04  1.8510E-04  6.3721E-04  163.113
    14   20   0.0539   0.0000   3.8479  0.02694  -6.0053E-04  1.3897E-04  6.1640E-04  166.971
    15   20  -0.0539   0.0000   4.3481  0.02694  -2.0593E-03  7.4922E-03  7.7700E-03  105.368
    16   20  -0.0269   0.0000   4.3481  0.02694  -2.1111E-03  7.7553E-03  8.0375E-03  105.228
    17   20   0.0000   0.0000   4.3481  0.02694  -2.1288E-03  7.8443E-03  8.1280E-03  105.184
    18   20   0.0269   0.0000   4.3481  0.02694  -2.1111E-03  7.7553E-03  8.0375E-03  105.228
    19   20   0.0539   0.0000   4.3481  0.02694  -2.0593E-03  7.4922E-03  7.7700E-03  105.368
    20   20   0.0673   0.0000   3.9186  0.02603  -2.0377E-03  7.5313E-03  7.8021E-03  105.140
    21   20   0.0673   0.0000   3.9447  0.02603  -1.9398E-03  7.2571E-03  7.5119E-03  104.965
    22   20   0.0673   0.0000   3.9707  0.02603  -1.7880E-03  6.7950E-03  7.0264E-03  104.742
    23   20   0.0673   0.0000   3.9967  0.02603  -1.5883E-03  6.1550E-03  6.3566E-03  104.469
    24   20   0.0673   0.0000   4.0228  0.02603  -1.3463E-03  5.3521E-03  5.5188E-03  104.120
    25   20   0.0673   0.0000   4.0488  0.02603  -1.0686E-03  4.4068E-03  4.5346E-03  103.631
    26   20   0.0673   0.0000   4.0748  0.02603  -7.6278E-04  3.3441E-03  3.4300E-03  102.849
    27   20   0.0673   0.0000   4.1008  0.02603  -4.3690E-04  2.1919E-03  2.2350E-03  101.273
    28   20   0.0673   0.0000   4.1269  0.02603  -9.9729E-05  9.8072E-04  9.8577E-04   95.806
    29   20   0.0673   0.0000   4.1529  0.02603   2.3975E-04 -2.5731E-04  3.5169E-04  -47.023
    30   20   0.0673   0.0000   4.1789  0.02603   5.7248E-04 -1.4895E-03  1.5957E-03  -68.975
    31   20   0.0673   0.0000   4.2050  0.02603   8.8963E-04 -2.6832E-03  2.8268E-03  -71.657
    32   20   0.0673   0.0000   4.2310  0.02603   1.1828E-03 -3.8072E-03  3.9867E-03  -72.742
    33   20   0.0673   0.0000   4.2570  0.02603   1.4442E-03 -4.8322E-03  5.0434E-03  -73.360
    34   20   0.0673   0.0000   4.2831  0.02603   1.6671E-03 -5.7319E-03  5.9694E-03  -73.783
    35   20   0.0673   0.0000   4.3091  0.02603   1.8459E-03 -6.4839E-03  6.7415E-03  -74.109
    36   20   0.0673   0.0000   4.3351  0.02603   1.9760E-03 -7.0709E-03  7.3418E-03  -74.386
    37   20  -0.0673   0.0000   3.9186  0.02603   2.0377E-03 -7.5313E-03  7.8021E-03  -74.860
    38   20  -0.0673   0.0000   3.9447  0.02603   1.9398E-03 -7.2571E-03  7.5119E-03  -75.035
    39   20  -0.0673   0.0000   3.9707  0.02603   1.7880E-03 -6.7950E-03  7.0264E-03  -75.258
    40   20  -0.0673   0.0000   3.9967  0.02603   1.5883E-03 -6.1550E-03  6.3566E-03  -75.531
    41   20  -0.0673   0.0000   4.0228  0.02603   1.3463E-03 -5.3521E-03  5.5188E-03  -75.880
    42   20  -0.0673   0.0000   4.0488  0.02603   1.0686E-03 -4.4068E-03  4.5346E-03  -76.369
    43   20  -0.0673   0.0000   4.0748  0.02603   7.6278E-04 -3.3441E-03  3.4300E-03  -77.151
    44   20  -0.0673   0.0000   4.1008  0.02603   4.3690E-04 -2.1919E-03  2.2350E-03  -78.727
    45   20  -0.0673   0.0000   4.1269  0.02603   9.9729E-05 -9.8072E-04  9.8577E-04  -84.194
    46   20  -0.0673   0.0000   4.1529  0.02603  -2.3975E-04  2.5731E-04  3.5169E-04  132.977
    47   20  -0.0673   0.0000   4.1789  0.02603  -5.7248E-04  1.4895E-03  1.5957E-03  111.025
    48   20  -0.0673   0.0000   4.2050  0.02603  -8.8963E-04  2.6832E-03  2.8268E-03  108.343
    49   20  -0.0673   0.0000   4.2310  0.02603  -1.1828E-03  3.8072E-03  3.9867E-03  107.258
    50   20  -0.0673   0.0000   4.2570  0.02603  -1.4442E-03  4.8322E-03  5.0434E-03  106.640
    51   20  -0.0673   0.0000   4.2831  0.02603  -1.6671E-03  5.7319E-03  5.9694E-03  106.217
    52   20  -0.0673   0.0000   4.3091  0.02603  -1.8459E-03  6.4839E-03  6.7415E-03  105.891
    53   20  -0.0673   0.0000   4.3351  0.02603  -1.9760E-03  7.0709E-03  7.3418E-03  105.614



                                        - - - POWER BUDGET - - -

                                           INPUT POWER   = 7.9058E-04 WATTS
                                           RADIATED POWER= 7.8356E-04 WATTS
                                           STRUCTURE LOSS= 7.0274E-06 WATTS
                                           NETWORK LOSS  = 0.0000E+00 WATTS
                                           EFFICIENCY    =  99.11 PERCENT



                                                - - - RADIATION PATTERNS - - -

  - - ANGLES - -           - POWER GAINS -       - - - POLARIZATION - - -    - - - E(THETA) - - -    - - - E(PHI) - - -
  THETA     PHI        VERT.   HOR.    TOTAL      AXIAL     TILT   SENSE     MAGNITUDE    PHASE      MAGNITUDE    PHASE 
 DEGREES  DEGREES       DB      DB      DB        RATIO     DEG.              VOLTS/M    DEGREES      VOLTS/M    DEGREES
   85.00    90.00    -178.83    8.84    8.84    0.00000   -90.00  LINEAR    2.49234E-10   110.52    6.02702E-01   -73.23






 ***** DATA CARD NO.  7   EN   0     1     1  1000  8.50000E+01  9.00000E+01  0.00000E+00  0.00000E+00  0.00000E+00  0.00000E+00

 RUN TIME =     0.094
