1



                                 *********************************************

                                    NUMERICAL ELECTROMAGNETICS CODE (NEC-2D)

                                 *********************************************




                                     - - - - COMMENTS - - - -


                          No comments specified                                                      
                                                                                                     




                                 - - - STRUCTURE SPECIFICATION - - -

                                     COORDINATES MUST BE INPUT IN
                                     METERS OR BE SCALED TO METERS
                                     BEFORE STRUCTURE INPUT IS ENDED


  WIRE                                                                               NO. OF    FIRST  LAST     TAG
  NO.        X1         Y1         Z1          X2         Y2         Z2      RADIUS   SEG.     SEG.   SEG.     NO.
     1    0.00000    0.00000   -0.14000     0.00000    0.00000   -0.02601    0.00050      2        1     2       1
     2    0.00000    0.00000   -0.02601     0.00000    0.00000    0.02601    0.00050      1        3     3     999
     3    0.00000    0.00000    0.02601     0.00000    0.00000    0.14000    0.00050      2        4     5       1
     4   -0.14000    0.00000   -0.60000    -0.14000    0.00000    0.60000    0.00050     23        6    28       2
     5    0.14000    0.00000   -0.60000     0.14000    0.00000    0.60000    0.00050     23       29    51       2
     6   -0.14000    0.00000   -0.60000     0.14000    0.00000   -0.60000    0.00050     23       52    74       2
     7   -0.14000    0.00000    0.60000     0.14000    0.00000    0.60000    0.00050     23       75    97       2
      THE STRUCTURE HAS BEEN MOVED, MOVE DATA CARD IS -
        0    0   0.00000   0.00000   0.00000   0.00000   0.00000   8.00000   0.00000

   GROUND PLANE SPECIFIED.

   WHERE WIRE ENDS TOUCH GROUND, CURRENT WILL BE INTERPOLATED TO IMAGE IN GROUND PLANE.


   TOTAL SEGMENTS USED=   97     NO. SEG. IN A SYMMETRIC CELL=   97     SYMMETRY FLAG=  0


         - MULTIPLE WIRE JUNCTIONS -
 JUNCTION    SEGMENTS  (- FOR END 1, + FOR END 2)
  NONE




                                 - - - - SEGMENTATION DATA - - - -

                                        COORDINATES IN METERS

                         I+ AND I- INDICATE THE SEGMENTS BEFORE AND AFTER I


  SEG.   COORDINATES OF SEG. CENTER     SEG.     ORIENTATION ANGLES    WIRE    CONNECTION DATA   TAG
  NO.       X         Y         Z       LENGTH     ALPHA     BETA      RADIUS    I-   I    I+    NO.
     1   0.00000   0.00000   7.88850   0.05700   90.00000   0.00000   0.00050     0    1    2      1
     2   0.00000   0.00000   7.94550   0.05700   90.00000   0.00000   0.00050     1    2    3      1
     3   0.00000   0.00000   8.00000   0.05201   90.00000   0.00000   0.00050     2    3    4    999
     4   0.00000   0.00000   8.05450   0.05700   90.00000   0.00000   0.00050     3    4    5      1
     5   0.00000   0.00000   8.11150   0.05700   90.00000   0.00000   0.00050     4    5    0      1
     6  -0.14000   0.00000   7.42609   0.05217   90.00000   0.00000   0.00050   -52    6    7      2
     7  -0.14000   0.00000   7.47826   0.05217   90.00000   0.00000   0.00050     6    7    8      2
     8  -0.14000   0.00000   7.53043   0.05217   90.00000   0.00000   0.00050     7    8    9      2
     9  -0.14000   0.00000   7.58261   0.05217   90.00000   0.00000   0.00050     8    9   10      2
    10  -0.14000   0.00000   7.63478   0.05217   90.00000   0.00000   0.00050     9   10   11      2
    11  -0.14000   0.00000   7.68696   0.05217   90.00000   0.00000   0.00050    10   11   12      2
    12  -0.14000   0.00000   7.73913   0.05217   90.00000   0.00000   0.00050    11   12   13      2
    13  -0.14000   0.00000   7.79130   0.05217   90.00000   0.00000   0.00050    12   13   14      2
    14  -0.14000   0.00000   7.84348   0.05217   90.00000   0.00000   0.00050    13   14   15      2
    15  -0.14000   0.00000   7.89565   0.05217   90.00000   0.00000   0.00050    14   15   16      2
    16  -0.14000   0.00000   7.94783   0.05217   90.00000   0.00000   0.00050    15   16   17      2
    17  -0.14000   0.00000   8.00000   0.05217   90.00000   0.00000   0.00050    16   17   18      2
    18  -0.14000   0.00000   8.05217   0.05217   90.00000   0.00000   0.00050    17   18   19      2
    19  -0.14000   0.00000   8.10435   0.05217   90.00000   0.00000   0.00050    18   19   20      2
    20  -0.14000   0.00000   8.15652   0.05217   90.00000   0.00000   0.00050    19   20   21      2
    21  -0.14000   0.00000   8.20870   0.05217   90.00000   0.00000   0.00050    20   21   22      2
    22  -0.14000   0.00000   8.26087   0.05217   90.00000   0.00000   0.00050    21   22   23      2
    23  -0.14000   0.00000   8.31304   0.05217   90.00000   0.00000   0.00050    22   23   24      2
    24  -0.14000   0.00000   8.36522   0.05217   90.00000   0.00000   0.00050    23   24   25      2
    25  -0.14000   0.00000   8.41739   0.05217   90.00000   0.00000   0.00050    24   25   26      2
    26  -0.14000   0.00000   8.46957   0.05217   90.00000   0.00000   0.00050    25   26   27      2
    27  -0.14000   0.00000   8.52174   0.05217   90.00000   0.00000   0.00050    26   27   28      2
    28  -0.14000   0.00000   8.57391   0.05217   90.00000   0.00000   0.00050    27   28   75      2
    29   0.14000   0.00000   7.42609   0.05217   90.00000   0.00000   0.00050    74   29   30      2
    30   0.14000   0.00000   7.47826   0.05217   90.00000   0.00000   0.00050    29   30   31      2
    31   0.14000   0.00000   7.53043   0.05217   90.00000   0.00000   0.00050    30   31   32      2
    32   0.14000   0.00000   7.58261   0.05217   90.00000   0.00000   0.00050    31   32   33      2
    33   0.14000   0.00000   7.63478   0.05217   90.00000   0.00000   0.00050    32   33   34      2
    34   0.14000   0.00000   7.68696   0.05217   90.00000   0.00000   0.00050    33   34   35      2
    35   0.14000   0.00000   7.73913   0.05217   90.00000   0.00000   0.00050    34   35   36      2
    36   0.14000   0.00000   7.79130   0.05217   90.00000   0.00000   0.00050    35   36   37      2
    37   0.14000   0.00000   7.84348   0.05217   90.00000   0.00000   0.00050    36   37   38      2
    38   0.14000   0.00000   7.89565   0.05217   90.00000   0.00000   0.00050    37   38   39      2
    39   0.14000   0.00000   7.94783   0.05217   90.00000   0.00000   0.00050    38   39   40      2
    40   0.14000   0.00000   8.00000   0.05217   90.00000   0.00000   0.00050    39   40   41      2
    41   0.14000   0.00000   8.05217   0.05217   90.00000   0.00000   0.00050    40   41   42      2
    42   0.14000   0.00000   8.10435   0.05217   90.00000   0.00000   0.00050    41   42   43      2
    43   0.14000   0.00000   8.15652   0.05217   90.00000   0.00000   0.00050    42   43   44      2
    44   0.14000   0.00000   8.20870   0.05217   90.00000   0.00000   0.00050    43   44   45      2
    45   0.14000   0.00000   8.26087   0.05217   90.00000   0.00000   0.00050    44   45   46      2
    46   0.14000   0.00000   8.31304   0.05217   90.00000   0.00000   0.00050    45   46   47      2
    47   0.14000   0.00000   8.36522   0.05217   90.00000   0.00000   0.00050    46   47   48      2
    48   0.14000   0.00000   8.41739   0.05217   90.00000   0.00000   0.00050    47   48   49      2
    49   0.14000   0.00000   8.46957   0.05217   90.00000   0.00000   0.00050    48   49   50      2
    50   0.14000   0.00000   8.52174   0.05217   90.00000   0.00000   0.00050    49   50   51      2
    51   0.14000   0.00000   8.57391   0.05217   90.00000   0.00000   0.00050    50   51  -97      2
    52  -0.13391   0.00000   7.40000   0.01217    0.00000   0.00000   0.00050    -6   52   53      2
    53  -0.12174   0.00000   7.40000   0.01217    0.00000   0.00000   0.00050    52   53   54      2
    54  -0.10957   0.00000   7.40000   0.01217    0.00000   0.00000   0.00050    53   54   55      2
    55  -0.09739   0.00000   7.40000   0.01217    0.00000   0.00000   0.00050    54   55   56      2
    56  -0.08522   0.00000   7.40000   0.01217    0.00000   0.00000   0.00050    55   56   57      2
    57  -0.07304   0.00000   7.40000   0.01217    0.00000   0.00000   0.00050    56   57   58      2
    58  -0.06087   0.00000   7.40000   0.01217    0.00000   0.00000   0.00050    57   58   59      2
    59  -0.04870   0.00000   7.40000   0.01217    0.00000   0.00000   0.00050    58   59   60      2
    60  -0.03652   0.00000   7.40000   0.01217    0.00000   0.00000   0.00050    59   60   61      2
    61  -0.02435   0.00000   7.40000   0.01217    0.00000   0.00000   0.00050    60   61   62      2
    62  -0.01217   0.00000   7.40000   0.01217    0.00000   0.00000   0.00050    61   62   63      2
    63   0.00000   0.00000   7.40000   0.01217    0.00000   0.00000   0.00050    62   63   64      2
    64   0.01217   0.00000   7.40000   0.01217    0.00000   0.00000   0.00050    63   64   65      2
    65   0.02435   0.00000   7.40000   0.01217    0.00000   0.00000   0.00050    64   65   66      2
    66   0.03652   0.00000   7.40000   0.01217    0.00000   0.00000   0.00050    65   66   67      2
    67   0.04870   0.00000   7.40000   0.01217    0.00000   0.00000   0.00050    66   67   68      2
    68   0.06087   0.00000   7.40000   0.01217    0.00000   0.00000   0.00050    67   68   69      2
    69   0.07304   0.00000   7.40000   0.01217    0.00000   0.00000   0.00050    68   69   70      2
    70   0.08522   0.00000   7.40000   0.01217    0.00000   0.00000   0.00050    69   70   71      2
    71   0.09739   0.00000   7.40000   0.01217    0.00000   0.00000   0.00050    70   71   72      2
    72   0.10957   0.00000   7.40000   0.01217    0.00000   0.00000   0.00050    71   72   73      2
    73   0.12174   0.00000   7.40000   0.01217    0.00000   0.00000   0.00050    72   73   74      2
    74   0.13391   0.00000   7.40000   0.01217    0.00000   0.00000   0.00050    73   74   29      2
    75  -0.13391   0.00000   8.60000   0.01217    0.00000   0.00000   0.00050    28   75   76      2
    76  -0.12174   0.00000   8.60000   0.01217    0.00000   0.00000   0.00050    75   76   77      2
    77  -0.10957   0.00000   8.60000   0.01217    0.00000   0.00000   0.00050    76   77   78      2
    78  -0.09739   0.00000   8.60000   0.01217    0.00000   0.00000   0.00050    77   78   79      2
    79  -0.08522   0.00000   8.60000   0.01217    0.00000   0.00000   0.00050    78   79   80      2
    80  -0.07304   0.00000   8.60000   0.01217    0.00000   0.00000   0.00050    79   80   81      2
    81  -0.06087   0.00000   8.60000   0.01217    0.00000   0.00000   0.00050    80   81   82      2
    82  -0.04870   0.00000   8.60000   0.01217    0.00000   0.00000   0.00050    81   82   83      2
    83  -0.03652   0.00000   8.60000   0.01217    0.00000   0.00000   0.00050    82   83   84      2
    84  -0.02435   0.00000   8.60000   0.01217    0.00000   0.00000   0.00050    83   84   85      2
    85  -0.01217   0.00000   8.60000   0.01217    0.00000   0.00000   0.00050    84   85   86      2
    86   0.00000   0.00000   8.60000   0.01217    0.00000   0.00000   0.00050    85   86   87      2
    87   0.01217   0.00000   8.60000   0.01217    0.00000   0.00000   0.00050    86   87   88      2
    88   0.02435   0.00000   8.60000   0.01217    0.00000   0.00000   0.00050    87   88   89      2
    89   0.03652   0.00000   8.60000   0.01217    0.00000   0.00000   0.00050    88   89   90      2
    90   0.04870   0.00000   8.60000   0.01217    0.00000   0.00000   0.00050    89   90   91      2
    91   0.06087   0.00000   8.60000   0.01217    0.00000   0.00000   0.00050    90   91   92      2
    92   0.07304   0.00000   8.60000   0.01217    0.00000   0.00000   0.00050    91   92   93      2
    93   0.08522   0.00000   8.60000   0.01217    0.00000   0.00000   0.00050    92   93   94      2
    94   0.09739   0.00000   8.60000   0.01217    0.00000   0.00000   0.00050    93   94   95      2
    95   0.10957   0.00000   8.60000   0.01217    0.00000   0.00000   0.00050    94   95   96      2
    96   0.12174   0.00000   8.60000   0.01217    0.00000   0.00000   0.00050    95   96   97      2
    97   0.13391   0.00000   8.60000   0.01217    0.00000   0.00000   0.00050    96   97  -51      2






 ***** DATA CARD NO.  1   GN   2     0     0     0  1.10000E+01  1.00000E-02  0.00000E+00  0.00000E+00  0.00000E+00  0.00000E+00
 ***** DATA CARD NO.  2   LD   5     0     0     0  5.80000E+07  0.00000E+00  0.00000E+00  0.00000E+00  0.00000E+00  0.00000E+00
 ***** DATA CARD NO.  3   EX   0   999     1     0  1.00000E+00  0.00000E+00  0.00000E+00  0.00000E+00  0.00000E+00  0.00000E+00
 ***** DATA CARD NO.  4   FR   0     1     0     0  1.44200E+02  0.00000E+00  0.00000E+00  0.00000E+00  0.00000E+00  0.00000E+00
 ***** DATA CARD NO.  5   RP   0     1     1  1000  8.50000E+01  0.00000E+00  0.00000E+00  0.00000E+00  0.00000E+00  0.00000E+00




                                 - - - - - - FREQUENCY - - - - - -

                                    FREQUENCY= 1.4420E+02 MHZ
                                    WAVELENGTH= 2.0791E+00 METERS




                    APPROXIMATE INTEGRATION EMPLOYED FOR SEGMENTS MORE THAN   1.000 WAVELENGTHS APART



                               - - - STRUCTURE IMPEDANCE LOADING - - -


       LOCATION          RESISTANCE   INDUCTANCE  CAPACITANCE       IMPEDANCE (OHMS)     CONDUCTIVITY    TYPE
    ITAG FROM THRU          OHMS        HENRYS       FARADS        REAL      IMAGINARY    MHOS/METER

     ALL                                                                                 5.8000E+07     WIRE  



                                  - - - ANTENNA ENVIRONMENT - - -

                                        FINITE GROUND.  SOMMERFELD SOLUTION
                                        RELATIVE DIELECTRIC CONST.= 11.000
                                        CONDUCTIVITY= 1.000E-02 MHOS/METER
                                        COMPLEX DIELECTRIC CONSTANT= 1.10000E+01-1.24660E+00



                                - - - MATRIX TIMING - - -

                        FILL=    0.031 SEC.,  FACTOR=    0.000 SEC.



                                          - - - ANTENNA INPUT PARAMETERS - - -

   TAG   SEG.    VOLTAGE (VOLTS)         CURRENT (AMPS)         IMPEDANCE (OHMS)        ADMITTANCE (MHOS)      POWER
   NO.   NO.    REAL        IMAG.       REAL        IMAG.       REAL        IMAG.       REAL        IMAG.     (WATTS)
   999     3 1.00000E+00 0.00000E+00 1.09485E-06 7.28858E-04 2.06096E+00-1.37201E+03 1.09485E-06 7.28858E-04 5.47427E-07



                             - - - CURRENTS AND LOCATION - - -

                                 DISTANCES IN WAVELENGTHS


  SEG.  TAG    COORD. OF SEG. CENTER     SEG.            - - - CURRENT (AMPS) - - -
  NO.   NO.     X        Y        Z      LENGTH     REAL        IMAG.       MAG.        PHASE
     1    1   0.0000   0.0000   3.7943  0.02741   4.3163E-07  1.7481E-04  1.7481E-04   89.859
     2    1   0.0000   0.0000   3.8217  0.02741   9.4090E-07  4.8860E-04  4.8860E-04   89.890
     3  999   0.0000   0.0000   3.8479  0.02502   1.0949E-06  7.2886E-04  7.2886E-04   89.914
     4    1   0.0000   0.0000   3.8741  0.02741   9.4082E-07  4.8860E-04  4.8860E-04   89.890
     5    1   0.0000   0.0000   3.9015  0.02741   4.3156E-07  1.7481E-04  1.7481E-04   89.859
     6    2  -0.0673   0.0000   3.5719  0.02509  -7.1045E-06 -2.9682E-06  7.6996E-06 -157.326
     7    2  -0.0673   0.0000   3.5969  0.02509  -9.2419E-06 -4.0449E-06  1.0088E-05 -156.362
     8    2  -0.0673   0.0000   3.6220  0.02509  -1.1348E-05 -5.5052E-06  1.2613E-05 -154.121
     9    2  -0.0673   0.0000   3.6471  0.02509  -1.3372E-05 -7.4475E-06  1.5306E-05 -150.885
    10    2  -0.0673   0.0000   3.6722  0.02509  -1.5271E-05 -1.0026E-05  1.8268E-05 -146.714
    11    2  -0.0673   0.0000   3.6973  0.02509  -1.7005E-05 -1.3470E-05  2.1694E-05 -141.616
    12    2  -0.0673   0.0000   3.7224  0.02509  -1.8540E-05 -1.8109E-05  2.5916E-05 -135.674
    13    2  -0.0673   0.0000   3.7475  0.02509  -1.9845E-05 -2.4336E-05  3.1401E-05 -129.196
    14    2  -0.0673   0.0000   3.7726  0.02509  -2.0895E-05 -3.2334E-05  3.8498E-05 -122.871
    15    2  -0.0673   0.0000   3.7977  0.02509  -2.1666E-05 -4.1321E-05  4.6657E-05 -117.669
    16    2  -0.0673   0.0000   3.8228  0.02509  -2.2139E-05 -4.8884E-05  5.3664E-05 -114.365
    17    2  -0.0673   0.0000   3.8479  0.02509  -2.2300E-05 -5.1903E-05  5.6490E-05 -113.250
    18    2  -0.0673   0.0000   3.8730  0.02509  -2.2142E-05 -4.8886E-05  5.3667E-05 -114.367
    19    2  -0.0673   0.0000   3.8981  0.02509  -2.1672E-05 -4.1325E-05  4.6663E-05 -117.674
    20    2  -0.0673   0.0000   3.9232  0.02509  -2.0904E-05 -3.2340E-05  3.8507E-05 -122.878
    21    2  -0.0673   0.0000   3.9483  0.02509  -1.9857E-05 -2.4343E-05  3.1414E-05 -129.204
    22    2  -0.0673   0.0000   3.9734  0.02509  -1.8553E-05 -1.8117E-05  2.5932E-05 -135.682
    23    2  -0.0673   0.0000   3.9985  0.02509  -1.7020E-05 -1.3479E-05  2.1711E-05 -141.621
    24    2  -0.0673   0.0000   4.0236  0.02509  -1.5286E-05 -1.0036E-05  1.8286E-05 -146.715
    25    2  -0.0673   0.0000   4.0487  0.02509  -1.3387E-05 -7.4571E-06  1.5324E-05 -150.881
    26    2  -0.0673   0.0000   4.0738  0.02509  -1.1362E-05 -5.5142E-06  1.2630E-05 -154.112
    27    2  -0.0673   0.0000   4.0988  0.02509  -9.2546E-06 -4.0529E-06  1.0103E-05 -156.350
    28    2  -0.0673   0.0000   4.1239  0.02509  -7.1148E-06 -2.9746E-06  7.7116E-06 -157.311
    29    2   0.0673   0.0000   3.5719  0.02509  -7.1045E-06 -2.9682E-06  7.6996E-06 -157.326
    30    2   0.0673   0.0000   3.5969  0.02509  -9.2419E-06 -4.0449E-06  1.0088E-05 -156.362
    31    2   0.0673   0.0000   3.6220  0.02509  -1.1348E-05 -5.5052E-06  1.2613E-05 -154.121
    32    2   0.0673   0.0000   3.6471  0.02509  -1.3372E-05 -7.4475E-06  1.5306E-05 -150.885
    33    2   0.0673   0.0000   3.6722  0.02509  -1.5271E-05 -1.0026E-05  1.8268E-05 -146.714
    34    2   0.0673   0.0000   3.6973  0.02509  -1.7005E-05 -1.3470E-05  2.1694E-05 -141.616
    35    2   0.0673   0.0000   3.7224  0.02509  -1.8540E-05 -1.8109E-05  2.5916E-05 -135.674
    36    2   0.0673   0.0000   3.7475  0.02509  -1.9845E-05 -2.4336E-05  3.1401E-05 -129.196
    37    2   0.0673   0.0000   3.7726  0.02509  -2.0895E-05 -3.2334E-05  3.8498E-05 -122.871
    38    2   0.0673   0.0000   3.7977  0.02509  -2.1666E-05 -4.1321E-05  4.6657E-05 -117.669
    39    2   0.0673   0.0000   3.8228  0.02509  -2.2139E-05 -4.8884E-05  5.3664E-05 -114.365
    40    2   0.0673   0.0000   3.8479  0.02509  -2.2300E-05 -5.1903E-05  5.6490E-05 -113.250
    41    2   0.0673   0.0000   3.8730  0.02509  -2.2142E-05 -4.8886E-05  5.3667E-05 -114.367
    42    2   0.0673   0.0000   3.8981  0.02509  -2.1672E-05 -4.1325E-05  4.6663E-05 -117.674
    43    2   0.0673   0.0000   3.9232  0.02509  -2.0904E-05 -3.2340E-05  3.8507E-05 -122.878
    44    2   0.0673   0.0000   3.9483  0.02509  -1.9857E-05 -2.4343E-05  3.1414E-05 -129.204
    45    2   0.0673   0.0000   3.9734  0.02509  -1.8553E-05 -1.8117E-05  2.5932E-05 -135.682
    46    2   0.0673   0.0000   3.9985  0.02509  -1.7020E-05 -1.3479E-05  2.1711E-05 -141.621
    47    2   0.0673   0.0000   4.0236  0.02509  -1.5286E-05 -1.0036E-05  1.8286E-05 -146.715
    48    2   0.0673   0.0000   4.0487  0.02509  -1.3387E-05 -7.4571E-06  1.5324E-05 -150.881
    49    2   0.0673   0.0000   4.0738  0.02509  -1.1362E-05 -5.5142E-06  1.2630E-05 -154.112
    50    2   0.0673   0.0000   4.0988  0.02509  -9.2546E-06 -4.0529E-06  1.0103E-05 -156.350
    51    2   0.0673   0.0000   4.1239  0.02509  -7.1148E-06 -2.9746E-06  7.7116E-06 -157.311
    52    2  -0.0644   0.0000   3.5593  0.00586   5.7965E-06  2.4698E-06  6.3008E-06   23.078
