1



                                 *********************************************

                                    NUMERICAL ELECTROMAGNETICS CODE (NEC-2D)

                                 *********************************************




                                     - - - - COMMENTS - - - -


                          No comments specified                                                      
                                                                                                     




                                 - - - STRUCTURE SPECIFICATION - - -

                                     COORDINATES MUST BE INPUT IN
                                     METERS OR BE SCALED TO METERS
                                     BEFORE STRUCTURE INPUT IS ENDED


  WIRE                                                                               NO. OF    FIRST  LAST     TAG
  NO.        X1         Y1         Z1          X2         Y2         Z2      RADIUS   SEG.     SEG.   SEG.     NO.
     1   -0.36200    0.27300    0.00000    -0.05000    0.27300    0.00000    0.00531      6        1     6       1
     2   -0.05000    0.27300    0.00000     0.00200    0.27300    0.00000    0.00531      1        7     7     999
     3    0.00200    0.27300    0.00000     0.36200    0.27300    0.00000    0.00531      6        8    13       1
     4   -0.36200    0.17000    0.00000    -0.36200    0.27300    0.00000    0.00531      2       14    15       2
     5    0.36200    0.17000    0.00000     0.36200    0.27300    0.00000    0.00531      2       16    17       3
     6   -0.36200    0.00000    0.00000     0.36200    0.00000    0.00000    0.00692     14       18    31       4
     7   -0.36200    0.00000    0.00000    -0.36200    0.13300    0.00000    0.00692      3       32    34       5
     8    0.36200    0.00000    0.00000     0.36200    0.13300    0.00000    0.00692      3       35    37       6
      THE STRUCTURE HAS BEEN MOVED, MOVE DATA CARD IS -
        0    0   0.00000   0.00000   0.00000   0.00000   0.00000   8.00000   0.00000

   GROUND PLANE SPECIFIED.

   WHERE WIRE ENDS TOUCH GROUND, CURRENT WILL BE INTERPOLATED TO IMAGE IN GROUND PLANE.


   TOTAL SEGMENTS USED=   37     NO. SEG. IN A SYMMETRIC CELL=   37     SYMMETRY FLAG=  0


         - MULTIPLE WIRE JUNCTIONS -
 JUNCTION    SEGMENTS  (- FOR END 1, + FOR END 2)
  NONE




                                 - - - - SEGMENTATION DATA - - - -

                                        COORDINATES IN METERS

                         I+ AND I- INDICATE THE SEGMENTS BEFORE AND AFTER I


  SEG.   COORDINATES OF SEG. CENTER     SEG.     ORIENTATION ANGLES    WIRE    CONNECTION DATA   TAG
  NO.       X         Y         Z       LENGTH     ALPHA     BETA      RADIUS    I-   I    I+    NO.
     1  -0.33600   0.27300   8.00000   0.05200    0.00000   0.00000   0.00531    15    1    2      1
     2  -0.28400   0.27300   8.00000   0.05200    0.00000   0.00000   0.00531     1    2    3      1
     3  -0.23200   0.27300   8.00000   0.05200    0.00000   0.00000   0.00531     2    3    4      1
     4  -0.18000   0.27300   8.00000   0.05200    0.00000   0.00000   0.00531     3    4    5      1
     5  -0.12800   0.27300   8.00000   0.05200    0.00000   0.00000   0.00531     4    5    6      1
     6  -0.07600   0.27300   8.00000   0.05200    0.00000   0.00000   0.00531     5    6    7      1
     7  -0.02400   0.27300   8.00000   0.05200    0.00000   0.00000   0.00531     6    7    8    999
     8   0.03200   0.27300   8.00000   0.06000    0.00000   0.00000   0.00531     7    8    9      1
     9   0.09200   0.27300   8.00000   0.06000    0.00000   0.00000   0.00531     8    9   10      1
    10   0.15200   0.27300   8.00000   0.06000    0.00000   0.00000   0.00531     9   10   11      1
    11   0.21200   0.27300   8.00000   0.06000    0.00000   0.00000   0.00531    10   11   12      1
    12   0.27200   0.27300   8.00000   0.06000    0.00000   0.00000   0.00531    11   12   13      1
    13   0.33200   0.27300   8.00000   0.06000    0.00000   0.00000   0.00531    12   13  -17      1
    14  -0.36200   0.19575   8.00000   0.05150    0.00000  90.00000   0.00531     0   14   15      2
    15  -0.36200   0.24725   8.00000   0.05150    0.00000  90.00000   0.00531    14   15    1      2
    16   0.36200   0.19575   8.00000   0.05150    0.00000  90.00000   0.00531     0   16   17      3
    17   0.36200   0.24725   8.00000   0.05150    0.00000  90.00000   0.00531    16   17  -13      3
    18  -0.33614   0.00000   8.00000   0.05171    0.00000   0.00000   0.00692   -32   18   19      4
    19  -0.28443   0.00000   8.00000   0.05171    0.00000   0.00000   0.00692    18   19   20      4
    20  -0.23271   0.00000   8.00000   0.05171    0.00000   0.00000   0.00692    19   20   21      4
    21  -0.18100   0.00000   8.00000   0.05171    0.00000   0.00000   0.00692    20   21   22      4
    22  -0.12929   0.00000   8.00000   0.05171    0.00000   0.00000   0.00692    21   22   23      4
    23  -0.07757   0.00000   8.00000   0.05171    0.00000   0.00000   0.00692    22   23   24      4
    24  -0.02586   0.00000   8.00000   0.05171    0.00000   0.00000   0.00692    23   24   25      4
    25   0.02586   0.00000   8.00000   0.05171    0.00000   0.00000   0.00692    24   25   26      4
    26   0.07757   0.00000   8.00000   0.05171    0.00000   0.00000   0.00692    25   26   27      4
    27   0.12929   0.00000   8.00000   0.05171    0.00000   0.00000   0.00692    26   27   28      4
    28   0.18100   0.00000   8.00000   0.05171    0.00000   0.00000   0.00692    27   28   29      4
    29   0.23271   0.00000   8.00000   0.05171    0.00000   0.00000   0.00692    28   29   30      4
    30   0.28443   0.00000   8.00000   0.05171    0.00000   0.00000   0.00692    29   30   31      4
    31   0.33614   0.00000   8.00000   0.05171    0.00000   0.00000   0.00692    30   31   35      4
    32  -0.36200   0.02217   8.00000   0.04433    0.00000  90.00000   0.00692   -18   32   33      5
    33  -0.36200   0.06650   8.00000   0.04433    0.00000  90.00000   0.00692    32   33   34      5
    34  -0.36200   0.11083   8.00000   0.04433    0.00000  90.00000   0.00692    33   34    0      5
    35   0.36200   0.02217   8.00000   0.04433    0.00000  90.00000   0.00692    31   35   36      6
    36   0.36200   0.06650   8.00000   0.04433    0.00000  90.00000   0.00692    35   36   37      6
    37   0.36200   0.11083   8.00000   0.04433    0.00000  90.00000   0.00692    36   37    0      6






 ***** DATA CARD NO.  1   GN   2     0     0     0  1.10000E+01  1.00000E-02  0.00000E+00  0.00000E+00  0.00000E+00  0.00000E+00
 ***** DATA CARD NO.  2   EK   0     0     0     0  0.00000E+00  0.00000E+00  0.00000E+00  0.00000E+00  0.00000E+00  0.00000E+00
 ***** DATA CARD NO.  3   LD   5     0     0     0  5.80000E+07  0.00000E+00  0.00000E+00  0.00000E+00  0.00000E+00  0.00000E+00
 ***** DATA CARD NO.  4   EX   0   999     1     0  1.00000E+00  0.00000E+00  0.00000E+00  0.00000E+00  0.00000E+00  0.00000E+00
 ***** DATA CARD NO.  5   FR   0     1     0     0  1.44200E+02  0.00000E+00  0.00000E+00  0.00000E+00  0.00000E+00  0.00000E+00
 ***** DATA CARD NO.  6   RP   0     1     1  1000  8.70000E+01  9.00000E+01  0.00000E+00  0.00000E+00  0.00000E+00  0.00000E+00




                                 - - - - - - FREQUENCY - - - - - -

                                    FREQUENCY= 1.4420E+02 MHZ
                                    WAVELENGTH= 2.0791E+00 METERS




                    APPROXIMATE INTEGRATION EMPLOYED FOR SEGMENTS MORE THAN   1.000 WAVELENGTHS APART

                    THE EXTENDED THIN WIRE KERNEL WILL BE USED



                               - - - STRUCTURE IMPEDANCE LOADING - - -


       LOCATION          RESISTANCE   INDUCTANCE  CAPACITANCE       IMPEDANCE (OHMS)     CONDUCTIVITY    TYPE
    ITAG FROM THRU          OHMS        HENRYS       FARADS        REAL      IMAGINARY    MHOS/METER

     ALL                                                                                 5.8000E+07     WIRE  



                                  - - - ANTENNA ENVIRONMENT - - -

                                        FINITE GROUND.  SOMMERFELD SOLUTION
                                        RELATIVE DIELECTRIC CONST.= 11.000
                                        CONDUCTIVITY= 1.000E-02 MHOS/METER
                                        COMPLEX DIELECTRIC CONSTANT= 1.10000E+01-1.24660E+00



                                - - - MATRIX TIMING - - -

                        FILL=    0.000 SEC.,  FACTOR=    0.000 SEC.



                                          - - - ANTENNA INPUT PARAMETERS - - -

   TAG   SEG.    VOLTAGE (VOLTS)         CURRENT (AMPS)         IMPEDANCE (OHMS)        ADMITTANCE (MHOS)      POWER
   NO.   NO.    REAL        IMAG.       REAL        IMAG.       REAL        IMAG.       REAL        IMAG.     (WATTS)
   999     7 1.00000E+00 0.00000E+00 2.94977E-02-4.94055E-03 3.29758E+01 5.52309E+00 2.94977E-02-4.94055E-03 1.47489E-02



                             - - - CURRENTS AND LOCATION - - -

                                 DISTANCES IN WAVELENGTHS


  SEG.  TAG    COORD. OF SEG. CENTER     SEG.            - - - CURRENT (AMPS) - - -
  NO.   NO.     X        Y        Z      LENGTH     REAL        IMAG.       MAG.        PHASE
     1    1  -0.1616   0.1313   3.8479  0.02501   1.4501E-02 -3.4755E-03  1.4912E-02  -13.478
     2    1  -0.1366   0.1313   3.8479  0.02501   1.8484E-02 -4.1563E-03  1.8946E-02  -12.673
     3    1  -0.1116   0.1313   3.8479  0.02501   2.2023E-02 -4.7172E-03  2.2523E-02  -12.090
     4    1  -0.0866   0.1313   3.8479  0.02501   2.4965E-02 -5.1045E-03  2.5481E-02  -11.556
     5    1  -0.0616   0.1313   3.8479  0.02501   2.7222E-02 -5.2883E-03  2.7731E-02  -10.993
     6    1  -0.0366   0.1313   3.8479  0.02501   2.8745E-02 -5.2208E-03  2.9215E-02  -10.294
     7  999  -0.0115   0.1313   3.8479  0.02501   2.9498E-02 -4.9406E-03  2.9909E-02   -9.508
     8    1   0.0154   0.1313   3.8479  0.02886   2.9431E-02 -5.4096E-03  2.9924E-02  -10.415
     9    1   0.0443   0.1313   3.8479  0.02886   2.8353E-02 -5.6288E-03  2.8906E-02  -11.229
    10    1   0.0731   0.1313   3.8479  0.02886   2.6262E-02 -5.5165E-03  2.6835E-02  -11.863
    11    1   0.1020   0.1313   3.8479  0.02886   2.3221E-02 -5.1248E-03  2.3780E-02  -12.445
    12    1   0.1308   0.1313   3.8479  0.02886   1.9336E-02 -4.4867E-03  1.9850E-02  -13.063
    13    1   0.1597   0.1313   3.8479  0.02886   1.4805E-02 -3.6688E-03  1.5253E-02  -13.918
    14    2  -0.1741   0.0942   3.8479  0.02477   4.6900E-03 -1.4018E-03  4.8950E-03  -16.641
    15    2  -0.1741   0.1189   3.8479  0.02477   1.0207E-02 -2.7097E-03  1.0561E-02  -14.867
    16    3   0.1741   0.0942   3.8479  0.02477  -4.6867E-03  1.4422E-03  4.9036E-03  162.896
    17    3   0.1741   0.1189   3.8479  0.02477  -1.0199E-02  2.8021E-03  1.0577E-02  164.638
    18    4  -0.1617   0.0000   3.8479  0.02487  -1.3180E-02  1.0982E-02  1.7156E-02  140.198
    19    4  -0.1368   0.0000   3.8479  0.02487  -1.5757E-02  1.3385E-02  2.0674E-02  139.653
    20    4  -0.1119   0.0000   3.8479  0.02487  -1.8097E-02  1.5520E-02  2.3841E-02  139.384
    21    4  -0.0871   0.0000   3.8479  0.02487  -2.0077E-02  1.7306E-02  2.6506E-02  139.240
    22    4  -0.0622   0.0000   3.8479  0.02487  -2.1618E-02  1.8686E-02  2.8574E-02  139.160
    23    4  -0.0373   0.0000   3.8479  0.02487  -2.2669E-02  1.9626E-02  2.9985E-02  139.116
    24    4  -0.0124   0.0000   3.8479  0.02487  -2.3202E-02  2.0103E-02  3.0700E-02  139.093
    25    4   0.0124   0.0000   3.8479  0.02487  -2.3202E-02  2.0107E-02  3.0703E-02  139.088
    26    4   0.0373   0.0000   3.8479  0.02487  -2.2669E-02  1.9637E-02  2.9992E-02  139.099
    27    4   0.0622   0.0000   3.8479  0.02487  -2.1617E-02  1.8703E-02  2.8585E-02  139.134
    28    4   0.0871   0.0000   3.8479  0.02487  -2.0077E-02  1.7327E-02  2.6520E-02  139.206
    29    4   0.1119   0.0000   3.8479  0.02487  -1.8097E-02  1.5543E-02  2.3856E-02  139.342
    30    4   0.1368   0.0000   3.8479  0.02487  -1.5756E-02  1.3408E-02  2.0689E-02  139.603
    31    4   0.1617   0.0000   3.8479  0.02487  -1.3180E-02  1.1005E-02  1.7170E-02  140.138
    32    5  -0.1741   0.0107   3.8479  0.02132   1.0640E-02 -8.5521E-03  1.3651E-02  -38.791
    33    5  -0.1741   0.0320   3.8479  0.02132   7.7984E-03 -6.0050E-03  9.8425E-03  -37.597
    34    5  -0.1741   0.0533   3.8479  0.02132   3.8734E-03 -2.8160E-03  4.7888E-03  -36.018
    35    6   0.1741   0.0107   3.8479  0.02132  -1.0639E-02  8.5739E-03  1.3664E-02  141.136
    36    6   0.1741   0.0320   3.8479  0.02132  -7.7976E-03  6.0239E-03  9.8534E-03  142.313
    37    6   0.1741   0.0533   3.8479  0.02132  -3.8728E-03  2.8274E-03  4.7951E-03  143.867



                                        - - - POWER BUDGET - - -

                                           INPUT POWER   = 1.4749E-02 WATTS
                                           RADIATED POWER= 1.4709E-02 WATTS
                                           STRUCTURE LOSS= 3.9642E-05 WATTS
                                           NETWORK LOSS  = 0.0000E+00 WATTS
                                           EFFICIENCY    =  99.73 PERCENT



                                                - - - RADIATION PATTERNS - - -

  - - ANGLES - -           - POWER GAINS -       - - - POLARIZATION - - -    - - - E(THETA) - - -    - - - E(PHI) - - -
  THETA     PHI        VERT.   HOR.    TOTAL      AXIAL     TILT   SENSE     MAGNITUDE    PHASE      MAGNITUDE    PHASE 
 DEGREES  DEGREES       DB      DB      DB        RATIO     DEG.              VOLTS/M    DEGREES      VOLTS/M    DEGREES
   87.00    90.00     -91.47   12.04   12.04    0.00000   -90.00  LINEAR    2.51158E-05    58.61    3.75885E+00   -91.00






 ***** DATA CARD NO.  7   EN   0     1     1  1000  8.70000E+01  9.00000E+01  0.00000E+00  0.00000E+00  0.00000E+00  0.00000E+00

 RUN TIME =     0.063
