1



                                 *********************************************

                                    NUMERICAL ELECTROMAGNETICS CODE (NEC-2D)

                                 *********************************************




                                     - - - - COMMENTS - - - -


                          No comments specified                                                      
                                                                                                     




                                 - - - STRUCTURE SPECIFICATION - - -

                                     COORDINATES MUST BE INPUT IN
                                     METERS OR BE SCALED TO METERS
                                     BEFORE STRUCTURE INPUT IS ENDED


  WIRE                                                                               NO. OF    FIRST  LAST     TAG
  NO.        X1         Y1         Z1          X2         Y2         Z2      RADIUS   SEG.     SEG.   SEG.     NO.
     1   -0.34300    0.30900    0.00000    -0.03100    0.30900    0.00000    0.00522      6        1     6       1
     2   -0.03100    0.30900    0.00000     0.02100    0.30900    0.00000    0.00522      1        7     7     999
     3    0.02100    0.30900    0.00000     0.34300    0.30900    0.00000    0.00522      6        8    13       1
     4   -0.34300    0.19000    0.00000    -0.34300    0.30900    0.00000    0.00522      3       14    16       2
     5    0.34300    0.19000    0.00000     0.34300    0.30900    0.00000    0.00522      3       17    19       3
     6   -0.34300    0.00000    0.00000     0.34300    0.00000    0.00000    0.00522     14       20    33       4
     7   -0.34300    0.00000    0.00000    -0.34300    0.16200    0.00000    0.00522      4       34    37       5
     8    0.34300    0.00000    0.00000     0.34300    0.16200    0.00000    0.00522      4       38    41       6
      THE STRUCTURE HAS BEEN MOVED, MOVE DATA CARD IS -
        0    0   0.00000   0.00000   0.00000   0.00000   0.00000   8.00000   0.00000

   GROUND PLANE SPECIFIED.

   WHERE WIRE ENDS TOUCH GROUND, CURRENT WILL BE INTERPOLATED TO IMAGE IN GROUND PLANE.


   TOTAL SEGMENTS USED=   41     NO. SEG. IN A SYMMETRIC CELL=   41     SYMMETRY FLAG=  0


         - MULTIPLE WIRE JUNCTIONS -
 JUNCTION    SEGMENTS  (- FOR END 1, + FOR END 2)
  NONE




                                 - - - - SEGMENTATION DATA - - - -

                                        COORDINATES IN METERS

                         I+ AND I- INDICATE THE SEGMENTS BEFORE AND AFTER I


  SEG.   COORDINATES OF SEG. CENTER     SEG.     ORIENTATION ANGLES    WIRE    CONNECTION DATA   TAG
  NO.       X         Y         Z       LENGTH     ALPHA     BETA      RADIUS    I-   I    I+    NO.
     1  -0.31700   0.30900   8.00000   0.05200    0.00000   0.00000   0.00522    16    1    2      1
     2  -0.26500   0.30900   8.00000   0.05200    0.00000   0.00000   0.00522     1    2    3      1
     3  -0.21300   0.30900   8.00000   0.05200    0.00000   0.00000   0.00522     2    3    4      1
     4  -0.16100   0.30900   8.00000   0.05200    0.00000   0.00000   0.00522     3    4    5      1
     5  -0.10900   0.30900   8.00000   0.05200    0.00000   0.00000   0.00522     4    5    6      1
     6  -0.05700   0.30900   8.00000   0.05200    0.00000   0.00000   0.00522     5    6    7      1
     7  -0.00500   0.30900   8.00000   0.05200    0.00000   0.00000   0.00522     6    7    8    999
     8   0.04783   0.30900   8.00000   0.05367    0.00000   0.00000   0.00522     7    8    9      1
     9   0.10150   0.30900   8.00000   0.05367    0.00000   0.00000   0.00522     8    9   10      1
    10   0.15517   0.30900   8.00000   0.05367    0.00000   0.00000   0.00522     9   10   11      1
    11   0.20883   0.30900   8.00000   0.05367    0.00000   0.00000   0.00522    10   11   12      1
    12   0.26250   0.30900   8.00000   0.05367    0.00000   0.00000   0.00522    11   12   13      1
    13   0.31617   0.30900   8.00000   0.05367    0.00000   0.00000   0.00522    12   13  -19      1
    14  -0.34300   0.20983   8.00000   0.03967    0.00000  90.00000   0.00522     0   14   15      2
    15  -0.34300   0.24950   8.00000   0.03967    0.00000  90.00000   0.00522    14   15   16      2
    16  -0.34300   0.28917   8.00000   0.03967    0.00000  90.00000   0.00522    15   16    1      2
    17   0.34300   0.20983   8.00000   0.03967    0.00000  90.00000   0.00522     0   17   18      3
    18   0.34300   0.24950   8.00000   0.03967    0.00000  90.00000   0.00522    17   18   19      3
    19   0.34300   0.28917   8.00000   0.03967    0.00000  90.00000   0.00522    18   19  -13      3
    20  -0.31850   0.00000   8.00000   0.04900    0.00000   0.00000   0.00522   -34   20   21      4
    21  -0.26950   0.00000   8.00000   0.04900    0.00000   0.00000   0.00522    20   21   22      4
    22  -0.22050   0.00000   8.00000   0.04900    0.00000   0.00000   0.00522    21   22   23      4
    23  -0.17150   0.00000   8.00000   0.04900    0.00000   0.00000   0.00522    22   23   24      4
    24  -0.12250   0.00000   8.00000   0.04900    0.00000   0.00000   0.00522    23   24   25      4
    25  -0.07350   0.00000   8.00000   0.04900    0.00000   0.00000   0.00522    24   25   26      4
    26  -0.02450   0.00000   8.00000   0.04900    0.00000   0.00000   0.00522    25   26   27      4
    27   0.02450   0.00000   8.00000   0.04900    0.00000   0.00000   0.00522    26   27   28      4
    28   0.07350   0.00000   8.00000   0.04900    0.00000   0.00000   0.00522    27   28   29      4
    29   0.12250   0.00000   8.00000   0.04900    0.00000   0.00000   0.00522    28   29   30      4
    30   0.17150   0.00000   8.00000   0.04900    0.00000   0.00000   0.00522    29   30   31      4
    31   0.22050   0.00000   8.00000   0.04900    0.00000   0.00000   0.00522    30   31   32      4
    32   0.26950   0.00000   8.00000   0.04900    0.00000   0.00000   0.00522    31   32   33      4
    33   0.31850   0.00000   8.00000   0.04900    0.00000   0.00000   0.00522    32   33   38      4
    34  -0.34300   0.02025   8.00000   0.04050    0.00000  90.00000   0.00522   -20   34   35      5
    35  -0.34300   0.06075   8.00000   0.04050    0.00000  90.00000   0.00522    34   35   36      5
    36  -0.34300   0.10125   8.00000   0.04050    0.00000  90.00000   0.00522    35   36   37      5
    37  -0.34300   0.14175   8.00000   0.04050    0.00000  90.00000   0.00522    36   37    0      5
    38   0.34300   0.02025   8.00000   0.04050    0.00000  90.00000   0.00522    33   38   39      6
    39   0.34300   0.06075   8.00000   0.04050    0.00000  90.00000   0.00522    38   39   40      6
    40   0.34300   0.10125   8.00000   0.04050    0.00000  90.00000   0.00522    39   40   41      6
    41   0.34300   0.14175   8.00000   0.04050    0.00000  90.00000   0.00522    40   41    0      6






 ***** DATA CARD NO.  1   GN   2     0     0     0  1.10000E+01  1.00000E-02  0.00000E+00  0.00000E+00  0.00000E+00  0.00000E+00
 ***** DATA CARD NO.  2   EK   0     0     0     0  0.00000E+00  0.00000E+00  0.00000E+00  0.00000E+00  0.00000E+00  0.00000E+00
 ***** DATA CARD NO.  3   LD   5     0     0     0  5.80000E+07  0.00000E+00  0.00000E+00  0.00000E+00  0.00000E+00  0.00000E+00
 ***** DATA CARD NO.  4   EX   0   999     1     0  1.00000E+00  0.00000E+00  0.00000E+00  0.00000E+00  0.00000E+00  0.00000E+00
 ***** DATA CARD NO.  5   FR   0     1     0     0  1.44200E+02  0.00000E+00  0.00000E+00  0.00000E+00  0.00000E+00  0.00000E+00
 ***** DATA CARD NO.  6   RP   0     1     1  1000  8.70000E+01  9.00000E+01  0.00000E+00  0.00000E+00  0.00000E+00  0.00000E+00




                                 - - - - - - FREQUENCY - - - - - -

                                    FREQUENCY= 1.4420E+02 MHZ
                                    WAVELENGTH= 2.0791E+00 METERS




                    APPROXIMATE INTEGRATION EMPLOYED FOR SEGMENTS MORE THAN   1.000 WAVELENGTHS APART

                    THE EXTENDED THIN WIRE KERNEL WILL BE USED



                               - - - STRUCTURE IMPEDANCE LOADING - - -


       LOCATION          RESISTANCE   INDUCTANCE  CAPACITANCE       IMPEDANCE (OHMS)     CONDUCTIVITY    TYPE
    ITAG FROM THRU          OHMS        HENRYS       FARADS        REAL      IMAGINARY    MHOS/METER

     ALL                                                                                 5.8000E+07     WIRE  



                                  - - - ANTENNA ENVIRONMENT - - -

                                        FINITE GROUND.  SOMMERFELD SOLUTION
                                        RELATIVE DIELECTRIC CONST.= 11.000
                                        CONDUCTIVITY= 1.000E-02 MHOS/METER
                                        COMPLEX DIELECTRIC CONSTANT= 1.10000E+01-1.24660E+00



                                - - - MATRIX TIMING - - -

                        FILL=    0.016 SEC.,  FACTOR=    0.000 SEC.



                                          - - - ANTENNA INPUT PARAMETERS - - -

   TAG   SEG.    VOLTAGE (VOLTS)         CURRENT (AMPS)         IMPEDANCE (OHMS)        ADMITTANCE (MHOS)      POWER
   NO.   NO.    REAL        IMAG.       REAL        IMAG.       REAL        IMAG.       REAL        IMAG.     (WATTS)
   999     7 1.00000E+00 0.00000E+00 1.48098E-02-3.00159E-03 6.48588E+01 1.31453E+01 1.48098E-02-3.00159E-03 7.40488E-03



                             - - - CURRENTS AND LOCATION - - -

                                 DISTANCES IN WAVELENGTHS


  SEG.  TAG    COORD. OF SEG. CENTER     SEG.            - - - CURRENT (AMPS) - - -
  NO.   NO.     X        Y        Z      LENGTH     REAL        IMAG.       MAG.        PHASE
     1    1  -0.1525   0.1486   3.8479  0.02501   7.9498E-03 -2.7495E-03  8.4118E-03  -19.078
     2    1  -0.1275   0.1486   3.8479  0.02501   9.8805E-03 -3.1442E-03  1.0369E-02  -17.652
     3    1  -0.1025   0.1486   3.8479  0.02501   1.1562E-02 -3.4357E-03  1.2062E-02  -16.550
     4    1  -0.0774   0.1486   3.8479  0.02501   1.2929E-02 -3.5888E-03  1.3417E-02  -15.514
     5    1  -0.0524   0.1486   3.8479  0.02501   1.3940E-02 -3.5816E-03  1.4393E-02  -14.409
     6    1  -0.0274   0.1486   3.8479  0.02501   1.4572E-02 -3.3716E-03  1.4957E-02  -13.027
     7  999  -0.0024   0.1486   3.8479  0.02501   1.4810E-02 -3.0016E-03  1.5111E-02  -11.457
     8    1   0.0230   0.1486   3.8479  0.02581   1.4642E-02 -3.4004E-03  1.5032E-02  -13.074
     9    1   0.0488   0.1486   3.8479  0.02581   1.4055E-02 -3.6348E-03  1.4517E-02  -14.500
    10    1   0.0746   0.1486   3.8479  0.02581   1.3059E-02 -3.6543E-03  1.3561E-02  -15.633
    11    1   0.1004   0.1486   3.8479  0.02581   1.1682E-02 -3.5023E-03  1.2196E-02  -16.688
    12    1   0.1263   0.1486   3.8479  0.02581   9.9661E-03 -3.2009E-03  1.0468E-02  -17.806
    13    1   0.1521   0.1486   3.8479  0.02581   7.9804E-03 -2.7874E-03  8.4532E-03  -19.253
    14    2  -0.1650   0.1009   3.8479  0.01908   1.9842E-03 -9.6597E-04  2.2068E-03  -25.958
    15    2  -0.1650   0.1200   3.8479  0.01908   4.2665E-03 -1.8229E-03  4.6396E-03  -23.135
    16    2  -0.1650   0.1391   3.8479  0.01908   6.0880E-03 -2.3384E-03  6.5216E-03  -21.012
    17    3   0.1650   0.1009   3.8479  0.01908  -1.9838E-03  9.7310E-04  2.2096E-03  153.871
    18    3   0.1650   0.1200   3.8479  0.01908  -4.2656E-03  1.8388E-03  4.6451E-03  156.681
    19    3   0.1650   0.1391   3.8479  0.01908  -6.0867E-03  2.3616E-03  6.5288E-03  158.794
    20    4  -0.1532   0.0000   3.8479  0.02357  -5.1273E-03  9.4301E-03  1.0734E-02  118.534
    21    4  -0.1296   0.0000   3.8479  0.02357  -5.8348E-03  1.1070E-02  1.2514E-02  117.792
    22    4  -0.1061   0.0000   3.8479  0.02357  -6.4795E-03  1.2517E-02  1.4095E-02  117.369
    23    4  -0.0825   0.0000   3.8479  0.02357  -7.0269E-03  1.3723E-02  1.5417E-02  117.115
    24    4  -0.0589   0.0000   3.8479  0.02357  -7.4541E-03  1.4654E-02  1.6441E-02  116.961
    25    4  -0.0354   0.0000   3.8479  0.02357  -7.7463E-03  1.5287E-02  1.7138E-02  116.872
    26    4  -0.0118   0.0000   3.8479  0.02357  -7.8945E-03  1.5607E-02  1.7490E-02  116.831
    27    4   0.0118   0.0000   3.8479  0.02357  -7.8945E-03  1.5608E-02  1.7491E-02  116.830
    28    4   0.0354   0.0000   3.8479  0.02357  -7.7463E-03  1.5289E-02  1.7139E-02  116.869
    29    4   0.0589   0.0000   3.8479  0.02357  -7.4541E-03  1.4657E-02  1.6444E-02  116.957
    30    4   0.0825   0.0000   3.8479  0.02357  -7.0269E-03  1.3727E-02  1.5421E-02  117.109
    31    4   0.1061   0.0000   3.8479  0.02357  -6.4795E-03  1.2521E-02  1.4098E-02  117.361
    32    4   0.1296   0.0000   3.8479  0.02357  -5.8347E-03  1.1075E-02  1.2518E-02  117.783
    33    4   0.1532   0.0000   3.8479  0.02357  -5.1272E-03  9.4346E-03  1.0738E-02  118.522
    34    5  -0.1650   0.0097   3.8479  0.01948   4.4444E-03 -7.7905E-03  8.9691E-03  -60.295
    35    5  -0.1650   0.0292   3.8479  0.01948   3.6832E-03 -6.1285E-03  7.1502E-03  -58.994
    36    5  -0.1650   0.0487   3.8479  0.01948   2.7300E-03 -4.2514E-03  5.0524E-03  -57.294
    37    5  -0.1650   0.0682   3.8479  0.01948   1.3660E-03 -1.9441E-03  2.3760E-03  -54.906
    38    6   0.1650   0.0097   3.8479  0.01948  -4.4443E-03  7.7949E-03  8.9729E-03  119.690
    39    6   0.1650   0.0292   3.8479  0.01948  -3.6830E-03  6.1327E-03  7.1537E-03  120.987
    40    6   0.1650   0.0487   3.8479  0.01948  -2.7298E-03  4.2550E-03  5.0554E-03  122.682
    41    6   0.1650   0.0682   3.8479  0.01948  -1.3659E-03  1.9463E-03  2.3777E-03  125.062



                                        - - - POWER BUDGET - - -

                                           INPUT POWER   = 7.4049E-03 WATTS
                                           RADIATED POWER= 7.3913E-03 WATTS
                                           STRUCTURE LOSS= 1.3621E-05 WATTS
                                           NETWORK LOSS  = 0.0000E+00 WATTS
                                           EFFICIENCY    =  99.82 PERCENT



                                                - - - RADIATION PATTERNS - - -

  - - ANGLES - -           - POWER GAINS -       - - - POLARIZATION - - -    - - - E(THETA) - - -    - - - E(PHI) - - -
  THETA     PHI        VERT.   HOR.    TOTAL      AXIAL     TILT   SENSE     MAGNITUDE    PHASE      MAGNITUDE    PHASE 
 DEGREES  DEGREES       DB      DB      DB        RATIO     DEG.              VOLTS/M    DEGREES      VOLTS/M    DEGREES
   87.00    90.00    -100.06   11.36   11.36    0.00000   -90.00  LINEAR    6.61947E-06    64.70    2.46333E+00   -98.67






 ***** DATA CARD NO.  7   EN   0     1     1  1000  8.70000E+01  9.00000E+01  0.00000E+00  0.00000E+00  0.00000E+00  0.00000E+00

 RUN TIME =     0.125
