1



                                 *********************************************

                                    NUMERICAL ELECTROMAGNETICS CODE (NEC-2D)

                                 *********************************************




                                     - - - - COMMENTS - - - -


                          No comments specified                                                      
                                                                                                     




                                 - - - STRUCTURE SPECIFICATION - - -

                                     COORDINATES MUST BE INPUT IN
                                     METERS OR BE SCALED TO METERS
                                     BEFORE STRUCTURE INPUT IS ENDED


  WIRE                                                                               NO. OF    FIRST  LAST     TAG
  NO.        X1         Y1         Z1          X2         Y2         Z2      RADIUS   SEG.     SEG.   SEG.     NO.
     1    0.33400    0.27600    0.00000     0.02200    0.27600    0.00000    0.00496      6        1     6       1
     2    0.02200    0.27600    0.00000    -0.03000    0.27600    0.00000    0.00496      1        7     7     999
     3   -0.03000    0.27600    0.00000    -0.33400    0.27600    0.00000    0.00496      6        8    13       1
     4   -0.33400    0.17700    0.00000    -0.33400    0.27600    0.00000    0.00496      2       14    15       2
     5    0.33400    0.17700    0.00000     0.33400    0.27600    0.00000    0.00496      2       16    17       3
     6    0.33400    0.00000    0.00000    -0.33400    0.00000    0.00000    0.00496     13       18    30       4
     7   -0.33400    0.00000    0.00000    -0.33400    0.14700    0.00000    0.00496      3       31    33       5
     8    0.33400    0.00000    0.00000     0.33400    0.14700    0.00000    0.00496      3       34    36       6
      THE STRUCTURE HAS BEEN MOVED, MOVE DATA CARD IS -
        0    0   0.00000   0.00000   0.00000   0.00000   0.00000   8.00000   0.00000

   GROUND PLANE SPECIFIED.

   WHERE WIRE ENDS TOUCH GROUND, CURRENT WILL BE INTERPOLATED TO IMAGE IN GROUND PLANE.


   TOTAL SEGMENTS USED=   36     NO. SEG. IN A SYMMETRIC CELL=   36     SYMMETRY FLAG=  0


         - MULTIPLE WIRE JUNCTIONS -
 JUNCTION    SEGMENTS  (- FOR END 1, + FOR END 2)
  NONE




                                 - - - - SEGMENTATION DATA - - - -

                                        COORDINATES IN METERS

                         I+ AND I- INDICATE THE SEGMENTS BEFORE AND AFTER I


  SEG.   COORDINATES OF SEG. CENTER     SEG.     ORIENTATION ANGLES    WIRE    CONNECTION DATA   TAG
  NO.       X         Y         Z       LENGTH     ALPHA     BETA      RADIUS    I-   I    I+    NO.
     1   0.30800   0.27600   8.00000   0.05200    0.00000 180.00000   0.00496    17    1    2      1
     2   0.25600   0.27600   8.00000   0.05200    0.00000 180.00000   0.00496     1    2    3      1
     3   0.20400   0.27600   8.00000   0.05200    0.00000 180.00000   0.00496     2    3    4      1
     4   0.15200   0.27600   8.00000   0.05200    0.00000 180.00000   0.00496     3    4    5      1
     5   0.10000   0.27600   8.00000   0.05200    0.00000 180.00000   0.00496     4    5    6      1
     6   0.04800   0.27600   8.00000   0.05200    0.00000 180.00000   0.00496     5    6    7      1
     7  -0.00400   0.27600   8.00000   0.05200    0.00000 180.00000   0.00496     6    7    8    999
     8  -0.05533   0.27600   8.00000   0.05067    0.00000 180.00000   0.00496     7    8    9      1
     9  -0.10600   0.27600   8.00000   0.05067    0.00000 180.00000   0.00496     8    9   10      1
    10  -0.15667   0.27600   8.00000   0.05067    0.00000 180.00000   0.00496     9   10   11      1
    11  -0.20733   0.27600   8.00000   0.05067    0.00000 180.00000   0.00496    10   11   12      1
    12  -0.25800   0.27600   8.00000   0.05067    0.00000 180.00000   0.00496    11   12   13      1
    13  -0.30867   0.27600   8.00000   0.05067    0.00000 180.00000   0.00496    12   13  -15      1
    14  -0.33400   0.20175   8.00000   0.04950    0.00000  90.00000   0.00496     0   14   15      2
    15  -0.33400   0.25125   8.00000   0.04950    0.00000  90.00000   0.00496    14   15  -13      2
    16   0.33400   0.20175   8.00000   0.04950    0.00000  90.00000   0.00496     0   16   17      3
    17   0.33400   0.25125   8.00000   0.04950    0.00000  90.00000   0.00496    16   17    1      3
    18   0.30831   0.00000   8.00000   0.05138    0.00000 180.00000   0.00496   -34   18   19      4
    19   0.25692   0.00000   8.00000   0.05138    0.00000 180.00000   0.00496    18   19   20      4
    20   0.20554   0.00000   8.00000   0.05138    0.00000 180.00000   0.00496    19   20   21      4
    21   0.15415   0.00000   8.00000   0.05138    0.00000 180.00000   0.00496    20   21   22      4
    22   0.10277   0.00000   8.00000   0.05138    0.00000 180.00000   0.00496    21   22   23      4
    23   0.05138   0.00000   8.00000   0.05138    0.00000 180.00000   0.00496    22   23   24      4
    24   0.00000   0.00000   8.00000   0.05138    0.00000 180.00000   0.00496    23   24   25      4
    25  -0.05138   0.00000   8.00000   0.05138    0.00000 180.00000   0.00496    24   25   26      4
    26  -0.10277   0.00000   8.00000   0.05138    0.00000 180.00000   0.00496    25   26   27      4
    27  -0.15415   0.00000   8.00000   0.05138    0.00000 180.00000   0.00496    26   27   28      4
    28  -0.20554   0.00000   8.00000   0.05138    0.00000 180.00000   0.00496    27   28   29      4
    29  -0.25692   0.00000   8.00000   0.05138    0.00000 180.00000   0.00496    28   29   30      4
    30  -0.30831   0.00000   8.00000   0.05138    0.00000 180.00000   0.00496    29   30   31      4
    31  -0.33400   0.02450   8.00000   0.04900    0.00000  90.00000   0.00496    30   31   32      5
    32  -0.33400   0.07350   8.00000   0.04900    0.00000  90.00000   0.00496    31   32   33      5
    33  -0.33400   0.12250   8.00000   0.04900    0.00000  90.00000   0.00496    32   33    0      5
    34   0.33400   0.02450   8.00000   0.04900    0.00000  90.00000   0.00496   -18   34   35      6
    35   0.33400   0.07350   8.00000   0.04900    0.00000  90.00000   0.00496    34   35   36      6
    36   0.33400   0.12250   8.00000   0.04900    0.00000  90.00000   0.00496    35   36    0      6






 ***** DATA CARD NO.  1   GN   2     0     0     0  1.10000E+01  1.00000E-02  0.00000E+00  0.00000E+00  0.00000E+00  0.00000E+00
 ***** DATA CARD NO.  2   EK   0     0     0     0  0.00000E+00  0.00000E+00  0.00000E+00  0.00000E+00  0.00000E+00  0.00000E+00
 ***** DATA CARD NO.  3   LD   5     0     0     0  5.80000E+07  0.00000E+00  0.00000E+00  0.00000E+00  0.00000E+00  0.00000E+00
 ***** DATA CARD NO.  4   EX   0   999     1     0  1.00000E+00  0.00000E+00  0.00000E+00  0.00000E+00  0.00000E+00  0.00000E+00
 ***** DATA CARD NO.  5   FR   0     1     0     0  1.44200E+02  0.00000E+00  0.00000E+00  0.00000E+00  0.00000E+00  0.00000E+00
 ***** DATA CARD NO.  6   RP   0     1     1  1000  8.70000E+01  9.00000E+01  0.00000E+00  0.00000E+00  0.00000E+00  0.00000E+00




                                 - - - - - - FREQUENCY - - - - - -

                                    FREQUENCY= 1.4420E+02 MHZ
                                    WAVELENGTH= 2.0791E+00 METERS




                    APPROXIMATE INTEGRATION EMPLOYED FOR SEGMENTS MORE THAN   1.000 WAVELENGTHS APART

                    THE EXTENDED THIN WIRE KERNEL WILL BE USED



                               - - - STRUCTURE IMPEDANCE LOADING - - -


       LOCATION          RESISTANCE   INDUCTANCE  CAPACITANCE       IMPEDANCE (OHMS)     CONDUCTIVITY    TYPE
    ITAG FROM THRU          OHMS        HENRYS       FARADS        REAL      IMAGINARY    MHOS/METER

     ALL                                                                                 5.8000E+07     WIRE  



                                  - - - ANTENNA ENVIRONMENT - - -

                                        FINITE GROUND.  SOMMERFELD SOLUTION
                                        RELATIVE DIELECTRIC CONST.= 11.000
                                        CONDUCTIVITY= 1.000E-02 MHOS/METER
                                        COMPLEX DIELECTRIC CONSTANT= 1.10000E+01-1.24660E+00



                                - - - MATRIX TIMING - - -

                        FILL=    0.000 SEC.,  FACTOR=    0.000 SEC.



                                          - - - ANTENNA INPUT PARAMETERS - - -

   TAG   SEG.    VOLTAGE (VOLTS)         CURRENT (AMPS)         IMPEDANCE (OHMS)        ADMITTANCE (MHOS)      POWER
   NO.   NO.    REAL        IMAG.       REAL        IMAG.       REAL        IMAG.       REAL        IMAG.     (WATTS)
   999     7 1.00000E+00 0.00000E+00 5.42794E-03 1.70524E-02 1.69493E+01-5.32477E+01 5.42794E-03 1.70524E-02 2.71397E-03



                             - - - CURRENTS AND LOCATION - - -

                                 DISTANCES IN WAVELENGTHS


  SEG.  TAG    COORD. OF SEG. CENTER     SEG.            - - - CURRENT (AMPS) - - -
  NO.   NO.     X        Y        Z      LENGTH     REAL        IMAG.       MAG.        PHASE
     1    1   0.1481   0.1328   3.8479  0.02501   2.8654E-03  7.9876E-03  8.4860E-03   70.266
     2    1   0.1231   0.1328   3.8479  0.02501   3.6021E-03  1.0261E-02  1.0875E-02   70.656
     3    1   0.0981   0.1328   3.8479  0.02501   4.2463E-03  1.2303E-02  1.3015E-02   70.958
     4    1   0.0731   0.1328   3.8479  0.02501   4.7638E-03  1.4030E-02  1.4817E-02   71.246
     5    1   0.0481   0.1328   3.8479  0.02501   5.1383E-03  1.5404E-02  1.6238E-02   71.552
     6    1   0.0231   0.1328   3.8479  0.02501   5.3612E-03  1.6432E-02  1.7284E-02   71.930
     7  999  -0.0019   0.1328   3.8479  0.02501   5.4279E-03  1.7052E-02  1.7895E-02   72.343
     8    1  -0.0266   0.1328   3.8479  0.02437   5.3393E-03  1.6375E-02  1.7223E-02   71.940
     9    1  -0.0510   0.1328   3.8479  0.02437   5.1029E-03  1.5316E-02  1.6144E-02   71.573
    10    1  -0.0754   0.1328   3.8479  0.02437   4.7233E-03  1.3933E-02  1.4712E-02   71.274
    11    1  -0.0997   0.1328   3.8479  0.02437   4.2090E-03  1.2218E-02  1.2923E-02   70.992
    12    1  -0.1241   0.1328   3.8479  0.02437   3.5756E-03  1.0207E-02  1.0815E-02   70.694
    13    1  -0.1485   0.1328   3.8479  0.02437   2.8560E-03  7.9807E-03  8.4764E-03   70.309
    14    2  -0.1606   0.0970   3.8479  0.02381  -1.0021E-03 -2.6019E-03  2.7883E-03 -111.064
    15    2  -0.1606   0.1208   3.8479  0.02381  -2.0821E-03 -5.6282E-03  6.0009E-03 -110.302
    16    3   0.1606   0.0970   3.8479  0.02381   1.0020E-03  2.5952E-03  2.7819E-03   68.888
    17    3   0.1606   0.1208   3.8479  0.02381   2.0818E-03  5.6126E-03  5.9862E-03   69.649
    18    4   0.1483   0.0000   3.8479  0.02472  -4.9825E-03 -8.5147E-03  9.8654E-03 -120.334
    19    4   0.1236   0.0000   3.8479  0.02472  -5.9248E-03 -1.0050E-02  1.1667E-02 -120.520
    20    4   0.0989   0.0000   3.8479  0.02472  -6.7473E-03 -1.1405E-02  1.3251E-02 -120.610
    21    4   0.0741   0.0000   3.8479  0.02472  -7.4161E-03 -1.2513E-02  1.4545E-02 -120.654
    22    4   0.0494   0.0000   3.8479  0.02472  -7.9080E-03 -1.3332E-02  1.5501E-02 -120.675
    23    4   0.0247   0.0000   3.8479  0.02472  -8.2087E-03 -1.3834E-02  1.6086E-02 -120.684
    24    4   0.0000   0.0000   3.8479  0.02472  -8.3098E-03 -1.4003E-02  1.6283E-02 -120.686
    25    4  -0.0247   0.0000   3.8479  0.02472  -8.2087E-03 -1.3835E-02  1.6087E-02 -120.682
    26    4  -0.0494   0.0000   3.8479  0.02472  -7.9080E-03 -1.3334E-02  1.5502E-02 -120.671
    27    4  -0.0741   0.0000   3.8479  0.02472  -7.4160E-03 -1.2516E-02  1.4548E-02 -120.649
    28    4  -0.0989   0.0000   3.8479  0.02472  -6.7473E-03 -1.1408E-02  1.3254E-02 -120.603
    29    4  -0.1236   0.0000   3.8479  0.02472  -5.9248E-03 -1.0054E-02  1.1670E-02 -120.511
    30    4  -0.1483   0.0000   3.8479  0.02472  -4.9825E-03 -8.5182E-03  9.8684E-03 -120.324
    31    5  -0.1606   0.0118   3.8479  0.02357  -3.9665E-03 -6.8804E-03  7.9419E-03 -119.963
    32    5  -0.1606   0.0354   3.8479  0.02357  -2.7952E-03 -4.9451E-03  5.6804E-03 -119.477
    33    5  -0.1606   0.0589   3.8479  0.02357  -1.2797E-03 -2.3287E-03  2.6571E-03 -118.790
    34    6   0.1606   0.0118   3.8479  0.02357   3.9665E-03  6.8770E-03  7.9389E-03   60.024
    35    6   0.1606   0.0354   3.8479  0.02357   2.7952E-03  4.9420E-03  5.6778E-03   60.508
    36    6   0.1606   0.0589   3.8479  0.02357   1.2797E-03  2.3269E-03  2.6555E-03   61.192



                                        - - - POWER BUDGET - - -

                                           INPUT POWER   = 2.7140E-03 WATTS
                                           RADIATED POWER= 2.7001E-03 WATTS
                                           STRUCTURE LOSS= 1.3880E-05 WATTS
                                           NETWORK LOSS  = 0.0000E+00 WATTS
                                           EFFICIENCY    =  99.49 PERCENT



                                                - - - RADIATION PATTERNS - - -

  - - ANGLES - -           - POWER GAINS -       - - - POLARIZATION - - -    - - - E(THETA) - - -    - - - E(PHI) - - -
  THETA     PHI        VERT.   HOR.    TOTAL      AXIAL     TILT   SENSE     MAGNITUDE    PHASE      MAGNITUDE    PHASE 
 DEGREES  DEGREES       DB      DB      DB        RATIO     DEG.              VOLTS/M    DEGREES      VOLTS/M    DEGREES
   87.00    90.00     -99.83   11.70   11.70    0.00000    90.00  LINEAR    4.11337E-06  -117.65    1.55108E+00   178.66






 ***** DATA CARD NO.  7   EN   0     1     1  1000  8.70000E+01  9.00000E+01  0.00000E+00  0.00000E+00  0.00000E+00  0.00000E+00

 RUN TIME =     0.094
