1



                                 *********************************************

                                    NUMERICAL ELECTROMAGNETICS CODE (NEC-2D)

                                 *********************************************




                                     - - - - COMMENTS - - - -


                          No comments specified                                                      
                                                                                                     




                                 - - - STRUCTURE SPECIFICATION - - -

                                     COORDINATES MUST BE INPUT IN
                                     METERS OR BE SCALED TO METERS
                                     BEFORE STRUCTURE INPUT IS ENDED


  WIRE                                                                               NO. OF    FIRST  LAST     TAG
  NO.        X1         Y1         Z1          X2         Y2         Z2      RADIUS   SEG.     SEG.   SEG.     NO.
     1    0.44900    0.00000    0.00000    -0.44900    0.00000    0.00000    0.00877     18        1    18       1
     2    0.40000    0.29900    0.00000     0.03600    0.29900    0.00000    0.00877      7       19    25       2
     3    0.03600    0.29900    0.00000    -0.01600    0.29900    0.00000    0.00877      1       26    26     999
     4   -0.01600    0.29900    0.00000    -0.40000    0.29900    0.00000    0.00877      7       27    33       2
     5    0.60000    0.49200    0.00000    -0.60000    0.49200    0.00000    0.00877     24       34    57       3
      THE STRUCTURE HAS BEEN MOVED, MOVE DATA CARD IS -
        0    0   0.00000   0.00000   0.00000   0.00000   0.00000   8.00000   0.00000

   GROUND PLANE SPECIFIED.

   WHERE WIRE ENDS TOUCH GROUND, CURRENT WILL BE INTERPOLATED TO IMAGE IN GROUND PLANE.


   TOTAL SEGMENTS USED=   57     NO. SEG. IN A SYMMETRIC CELL=   57     SYMMETRY FLAG=  0


         - MULTIPLE WIRE JUNCTIONS -
 JUNCTION    SEGMENTS  (- FOR END 1, + FOR END 2)
  NONE




                                 - - - - SEGMENTATION DATA - - - -

                                        COORDINATES IN METERS

                         I+ AND I- INDICATE THE SEGMENTS BEFORE AND AFTER I


  SEG.   COORDINATES OF SEG. CENTER     SEG.     ORIENTATION ANGLES    WIRE    CONNECTION DATA   TAG
  NO.       X         Y         Z       LENGTH     ALPHA     BETA      RADIUS    I-   I    I+    NO.
     1   0.42406   0.00000   8.00000   0.04989    0.00000 180.00000   0.00877     0    1    2      1
     2   0.37417   0.00000   8.00000   0.04989    0.00000 180.00000   0.00877     1    2    3      1
     3   0.32428   0.00000   8.00000   0.04989    0.00000 180.00000   0.00877     2    3    4      1
     4   0.27439   0.00000   8.00000   0.04989    0.00000 180.00000   0.00877     3    4    5      1
     5   0.22450   0.00000   8.00000   0.04989    0.00000 180.00000   0.00877     4    5    6      1
     6   0.17461   0.00000   8.00000   0.04989    0.00000 180.00000   0.00877     5    6    7      1
     7   0.12472   0.00000   8.00000   0.04989    0.00000 180.00000   0.00877     6    7    8      1
     8   0.07483   0.00000   8.00000   0.04989    0.00000 180.00000   0.00877     7    8    9      1
     9   0.02494   0.00000   8.00000   0.04989    0.00000 180.00000   0.00877     8    9   10      1
    10  -0.02494   0.00000   8.00000   0.04989    0.00000 180.00000   0.00877     9   10   11      1
    11  -0.07483   0.00000   8.00000   0.04989    0.00000 180.00000   0.00877    10   11   12      1
    12  -0.12472   0.00000   8.00000   0.04989    0.00000 180.00000   0.00877    11   12   13      1
    13  -0.17461   0.00000   8.00000   0.04989    0.00000 180.00000   0.00877    12   13   14      1
    14  -0.22450   0.00000   8.00000   0.04989    0.00000 180.00000   0.00877    13   14   15      1
    15  -0.27439   0.00000   8.00000   0.04989    0.00000 180.00000   0.00877    14   15   16      1
    16  -0.32428   0.00000   8.00000   0.04989    0.00000 180.00000   0.00877    15   16   17      1
    17  -0.37417   0.00000   8.00000   0.04989    0.00000 180.00000   0.00877    16   17   18      1
    18  -0.42406   0.00000   8.00000   0.04989    0.00000 180.00000   0.00877    17   18    0      1
    19   0.37400   0.29900   8.00000   0.05200    0.00000 180.00000   0.00877     0   19   20      2
    20   0.32200   0.29900   8.00000   0.05200    0.00000 180.00000   0.00877    19   20   21      2
    21   0.27000   0.29900   8.00000   0.05200    0.00000 180.00000   0.00877    20   21   22      2
    22   0.21800   0.29900   8.00000   0.05200    0.00000 180.00000   0.00877    21   22   23      2
    23   0.16600   0.29900   8.00000   0.05200    0.00000 180.00000   0.00877    22   23   24      2
    24   0.11400   0.29900   8.00000   0.05200    0.00000 180.00000   0.00877    23   24   25      2
    25   0.06200   0.29900   8.00000   0.05200    0.00000 180.00000   0.00877    24   25   26      2
    26   0.01000   0.29900   8.00000   0.05200    0.00000 180.00000   0.00877    25   26   27    999
    27  -0.04343   0.29900   8.00000   0.05486    0.00000 180.00000   0.00877    26   27   28      2
    28  -0.09829   0.29900   8.00000   0.05486    0.00000 180.00000   0.00877    27   28   29      2
    29  -0.15314   0.29900   8.00000   0.05486    0.00000 180.00000   0.00877    28   29   30      2
    30  -0.20800   0.29900   8.00000   0.05486    0.00000 180.00000   0.00877    29   30   31      2
    31  -0.26286   0.29900   8.00000   0.05486    0.00000 180.00000   0.00877    30   31   32      2
    32  -0.31771   0.29900   8.00000   0.05486    0.00000 180.00000   0.00877    31   32   33      2
    33  -0.37257   0.29900   8.00000   0.05486    0.00000 180.00000   0.00877    32   33    0      2
    34   0.57500   0.49200   8.00000   0.05000    0.00000 180.00000   0.00877     0   34   35      3
    35   0.52500   0.49200   8.00000   0.05000    0.00000 180.00000   0.00877    34   35   36      3
    36   0.47500   0.49200   8.00000   0.05000    0.00000 180.00000   0.00877    35   36   37      3
    37   0.42500   0.49200   8.00000   0.05000    0.00000 180.00000   0.00877    36   37   38      3
    38   0.37500   0.49200   8.00000   0.05000    0.00000 180.00000   0.00877    37   38   39      3
    39   0.32500   0.49200   8.00000   0.05000    0.00000 180.00000   0.00877    38   39   40      3
    40   0.27500   0.49200   8.00000   0.05000    0.00000 180.00000   0.00877    39   40   41      3
    41   0.22500   0.49200   8.00000   0.05000    0.00000 180.00000   0.00877    40   41   42      3
    42   0.17500   0.49200   8.00000   0.05000    0.00000 180.00000   0.00877    41   42   43      3
    43   0.12500   0.49200   8.00000   0.05000    0.00000 180.00000   0.00877    42   43   44      3
    44   0.07500   0.49200   8.00000   0.05000    0.00000 180.00000   0.00877    43   44   45      3
    45   0.02500   0.49200   8.00000   0.05000    0.00000 180.00000   0.00877    44   45   46      3
    46  -0.02500   0.49200   8.00000   0.05000    0.00000 180.00000   0.00877    45   46   47      3
    47  -0.07500   0.49200   8.00000   0.05000    0.00000 180.00000   0.00877    46   47   48      3
    48  -0.12500   0.49200   8.00000   0.05000    0.00000 180.00000   0.00877    47   48   49      3
    49  -0.17500   0.49200   8.00000   0.05000    0.00000 180.00000   0.00877    48   49   50      3
    50  -0.22500   0.49200   8.00000   0.05000    0.00000 180.00000   0.00877    49   50   51      3
    51  -0.27500   0.49200   8.00000   0.05000    0.00000 180.00000   0.00877    50   51   52      3
    52  -0.32500   0.49200   8.00000   0.05000    0.00000 180.00000   0.00877    51   52   53      3
    53  -0.37500   0.49200   8.00000   0.05000    0.00000 180.00000   0.00877    52   53   54      3
    54  -0.42500   0.49200   8.00000   0.05000    0.00000 180.00000   0.00877    53   54   55      3
    55  -0.47500   0.49200   8.00000   0.05000    0.00000 180.00000   0.00877    54   55   56      3
    56  -0.52500   0.49200   8.00000   0.05000    0.00000 180.00000   0.00877    55   56   57      3
    57  -0.57500   0.49200   8.00000   0.05000    0.00000 180.00000   0.00877    56   57    0      3






 ***** DATA CARD NO.  1   GN   2     0     0     0  1.10000E+01  1.00000E-02  0.00000E+00  0.00000E+00  0.00000E+00  0.00000E+00
 ***** DATA CARD NO.  2   EK   0     0     0     0  0.00000E+00  0.00000E+00  0.00000E+00  0.00000E+00  0.00000E+00  0.00000E+00
 ***** DATA CARD NO.  3   LD   5     0     0     0  5.80000E+07  0.00000E+00  0.00000E+00  0.00000E+00  0.00000E+00  0.00000E+00
 ***** DATA CARD NO.  4   EX   0   999     1     0  1.00000E+00  0.00000E+00  0.00000E+00  0.00000E+00  0.00000E+00  0.00000E+00
 ***** DATA CARD NO.  5   FR   0     1     0     0  1.44200E+02  0.00000E+00  0.00000E+00  0.00000E+00  0.00000E+00  0.00000E+00
 ***** DATA CARD NO.  6   RP   0     1     1  1000  8.70000E+01  9.00000E+01  0.00000E+00  0.00000E+00  0.00000E+00  0.00000E+00




                                 - - - - - - FREQUENCY - - - - - -

                                    FREQUENCY= 1.4420E+02 MHZ
                                    WAVELENGTH= 2.0791E+00 METERS




                    APPROXIMATE INTEGRATION EMPLOYED FOR SEGMENTS MORE THAN   1.000 WAVELENGTHS APART

                    THE EXTENDED THIN WIRE KERNEL WILL BE USED



                               - - - STRUCTURE IMPEDANCE LOADING - - -


       LOCATION          RESISTANCE   INDUCTANCE  CAPACITANCE       IMPEDANCE (OHMS)     CONDUCTIVITY    TYPE
    ITAG FROM THRU          OHMS        HENRYS       FARADS        REAL      IMAGINARY    MHOS/METER

     ALL                                                                                 5.8000E+07     WIRE  



                                  - - - ANTENNA ENVIRONMENT - - -

                                        FINITE GROUND.  SOMMERFELD SOLUTION
                                        RELATIVE DIELECTRIC CONST.= 11.000
                                        CONDUCTIVITY= 1.000E-02 MHOS/METER
                                        COMPLEX DIELECTRIC CONSTANT= 1.10000E+01-1.24660E+00



                                - - - MATRIX TIMING - - -

                        FILL=    0.016 SEC.,  FACTOR=    0.000 SEC.



                                          - - - ANTENNA INPUT PARAMETERS - - -

   TAG   SEG.    VOLTAGE (VOLTS)         CURRENT (AMPS)         IMPEDANCE (OHMS)        ADMITTANCE (MHOS)      POWER
   NO.   NO.    REAL        IMAG.       REAL        IMAG.       REAL        IMAG.       REAL        IMAG.     (WATTS)
   999    26 1.00000E+00 0.00000E+00 9.49383E-04 1.01220E-02 9.18558E+00-9.79334E+01 9.49383E-04 1.01220E-02 4.74691E-04



                             - - - CURRENTS AND LOCATION - - -

                                 DISTANCES IN WAVELENGTHS


  SEG.  TAG    COORD. OF SEG. CENTER     SEG.            - - - CURRENT (AMPS) - - -
  NO.   NO.     X        Y        Z      LENGTH     REAL        IMAG.       MAG.        PHASE
     1    1   0.2040   0.0000   3.8479  0.02400   3.7987E-04 -7.7119E-04  8.5967E-04  -63.776
     2    1   0.1800   0.0000   3.8479  0.02400   8.1861E-04 -1.6840E-03  1.8724E-03  -64.075
     3    1   0.1560   0.0000   3.8479  0.02400   1.1770E-03 -2.4525E-03  2.7203E-03  -64.364
     4    1   0.1320   0.0000   3.8479  0.02400   1.4875E-03 -3.1361E-03  3.4710E-03  -64.623
     5    1   0.1080   0.0000   3.8479  0.02400   1.7509E-03 -3.7290E-03  4.1196E-03  -64.848
     6    1   0.0840   0.0000   3.8479  0.02400   1.9654E-03 -4.2212E-03  4.6563E-03  -65.033
     7    1   0.0600   0.0000   3.8479  0.02400   2.1288E-03 -4.6017E-03  5.0702E-03  -65.174
     8    1   0.0360   0.0000   3.8479  0.02400   2.2390E-03 -4.8609E-03  5.3517E-03  -65.268
     9    1   0.0120   0.0000   3.8479  0.02400   2.2945E-03 -4.9918E-03  5.4939E-03  -65.314
    10    1  -0.0120   0.0000   3.8479  0.02400   2.2944E-03 -4.9908E-03  5.4930E-03  -65.310
    11    1  -0.0360   0.0000   3.8479  0.02400   2.2389E-03 -4.8581E-03  5.3492E-03  -65.258
    12    1  -0.0600   0.0000   3.8479  0.02400   2.1286E-03 -4.5976E-03  5.0665E-03  -65.157
    13    1  -0.0840   0.0000   3.8479  0.02400   1.9651E-03 -4.2165E-03  4.6519E-03  -65.012
    14    1  -0.1080   0.0000   3.8479  0.02400   1.7505E-03 -3.7242E-03  4.1151E-03  -64.825
    15    1  -0.1320   0.0000   3.8479  0.02400   1.4872E-03 -3.1318E-03  3.4669E-03  -64.599
    16    1  -0.1560   0.0000   3.8479  0.02400   1.1766E-03 -2.4491E-03  2.7171E-03  -64.339
    17    1  -0.1800   0.0000   3.8479  0.02400   8.1832E-04 -1.6817E-03  1.8702E-03  -64.052
    18    1  -0.2040   0.0000   3.8479  0.02400   3.7972E-04 -7.7016E-04  8.5868E-04  -63.755
    19    2   0.1799   0.1438   3.8479  0.02501   1.8531E-04  1.5116E-03  1.5229E-03   83.011
    20    2   0.1549   0.1438   3.8479  0.02501   3.9497E-04  3.3211E-03  3.3445E-03   83.218
    21    2   0.1299   0.1438   3.8479  0.02501   5.5884E-04  4.8480E-03  4.8801E-03   83.425
    22    2   0.1049   0.1438   3.8479  0.02501   6.9377E-04  6.2134E-03  6.2520E-03   83.629
    23    2   0.0798   0.1438   3.8479  0.02501   8.0065E-04  7.4154E-03  7.4585E-03   83.838
    24    2   0.0548   0.1438   3.8479  0.02501   8.7924E-04  8.4510E-03  8.4966E-03   84.060
    25    2   0.0298   0.1438   3.8479  0.02501   9.2898E-04  9.3610E-03  9.4069E-03   84.333
    26  999   0.0048   0.1438   3.8479  0.02501   9.4938E-04  1.0122E-02  1.0166E-02   84.642
    27    2  -0.0209   0.1438   3.8479  0.02639   9.3956E-04  9.4397E-03  9.4863E-03   84.316
    28    2  -0.0473   0.1438   3.8479  0.02639   8.9714E-04  8.5726E-03  8.6195E-03   84.026
    29    2  -0.0737   0.1438   3.8479  0.02639   8.2243E-04  7.5577E-03  7.6023E-03   83.789
    30    2  -0.1000   0.1438   3.8479  0.02639   7.1612E-04  6.3532E-03  6.3935E-03   83.569
    31    2  -0.1264   0.1438   3.8479  0.02639   5.7863E-04  4.9654E-03  4.9990E-03   83.353
    32    2  -0.1528   0.1438   3.8479  0.02639   4.0931E-04  3.3996E-03  3.4242E-03   83.135
    33    2  -0.1792   0.1438   3.8479  0.02639   1.9105E-04  1.5373E-03  1.5491E-03   82.916
    34    3   0.2766   0.2366   3.8479  0.02405  -1.2143E-04 -6.0865E-05  1.3583E-04 -153.379
    35    3   0.2525   0.2366   3.8479  0.02405  -2.7456E-04 -1.5969E-04  3.1762E-04 -149.818
    36    3   0.2285   0.2366   3.8479  0.02405  -4.1525E-04 -2.8092E-04  5.0135E-04 -145.921
    37    3   0.2044   0.2366   3.8479  0.02405  -5.5301E-04 -4.3297E-04  7.0234E-04 -141.941
    38    3   0.1804   0.2366   3.8479  0.02405  -6.8686E-04 -6.1528E-04  9.2215E-04 -138.146
    39    3   0.1563   0.2366   3.8479  0.02405  -8.1421E-04 -8.1981E-04  1.1554E-03 -134.804
    40    3   0.1323   0.2366   3.8479  0.02405  -9.3151E-04 -1.0329E-03  1.3909E-03 -132.046
    41    3   0.1082   0.2366   3.8479  0.02405  -1.0352E-03 -1.2394E-03  1.6148E-03 -129.869
    42    3   0.0842   0.2366   3.8479  0.02405  -1.1220E-03 -1.4253E-03  1.8139E-03 -128.210
    43    3   0.0601   0.2366   3.8479  0.02405  -1.1895E-03 -1.5780E-03  1.9761E-03 -127.007
    44    3   0.0361   0.2366   3.8479  0.02405  -1.2355E-03 -1.6865E-03  2.0907E-03 -126.226
    45    3   0.0120   0.2366   3.8479  0.02405  -1.2590E-03 -1.7417E-03  2.1491E-03 -125.861
    46    3  -0.0120   0.2366   3.8479  0.02405  -1.2591E-03 -1.7385E-03  2.1466E-03 -125.913
    47    3  -0.0361   0.2366   3.8479  0.02405  -1.2359E-03 -1.6778E-03  2.0839E-03 -126.375
    48    3  -0.0601   0.2366   3.8479  0.02405  -1.1900E-03 -1.5658E-03  1.9666E-03 -127.235
    49    3  -0.0842   0.2366   3.8479  0.02405  -1.1227E-03 -1.4115E-03  1.8035E-03 -128.500
    50    3  -0.1082   0.2366   3.8479  0.02405  -1.0360E-03 -1.2256E-03  1.6048E-03 -130.207
    51    3  -0.1323   0.2366   3.8479  0.02405  -9.3245E-04 -1.0204E-03  1.3822E-03 -132.422
    52    3  -0.1563   0.2366   3.8479  0.02405  -8.1521E-04 -8.0922E-04  1.1487E-03 -135.211
    53    3  -0.1804   0.2366   3.8479  0.02405  -6.8787E-04 -6.0695E-04  9.1736E-04 -138.576
    54    3  -0.2044   0.2366   3.8479  0.02405  -5.5396E-04 -4.2687E-04  6.9935E-04 -142.383
    55    3  -0.2285   0.2366   3.8479  0.02405  -4.1609E-04 -2.7684E-04  4.9977E-04 -146.362
    56    3  -0.2525   0.2366   3.8479  0.02405  -2.7520E-04 -1.5730E-04  3.1699E-04 -150.248
    57    3  -0.2766   0.2366   3.8479  0.02405  -1.2176E-04 -5.9936E-05  1.3571E-04 -153.791



                                        - - - POWER BUDGET - - -

                                           INPUT POWER   = 4.7469E-04 WATTS
                                           RADIATED POWER= 4.7315E-04 WATTS
                                           STRUCTURE LOSS= 1.5401E-06 WATTS
                                           NETWORK LOSS  = 0.0000E+00 WATTS
                                           EFFICIENCY    =  99.68 PERCENT



                                                - - - RADIATION PATTERNS - - -

  - - ANGLES - -           - POWER GAINS -       - - - POLARIZATION - - -    - - - E(THETA) - - -    - - - E(PHI) - - -
  THETA     PHI        VERT.   HOR.    TOTAL      AXIAL     TILT   SENSE     MAGNITUDE    PHASE      MAGNITUDE    PHASE 
 DEGREES  DEGREES       DB      DB      DB        RATIO     DEG.              VOLTS/M    DEGREES      VOLTS/M    DEGREES
   87.00    90.00    -999.99    2.17    2.17    0.00000    90.00  LINEAR    1.85140E-14   148.09    2.16650E-01  -152.02






 ***** DATA CARD NO.  7   EN   0     1     1  1000  8.70000E+01  9.00000E+01  0.00000E+00  0.00000E+00  0.00000E+00  0.00000E+00

 RUN TIME =     0.109
